(1522126607.026652) can0 115#0FB6015A0151
(1522126607.026823) can0 116#06C602DC
(1522126607.036713) can0 115#0FC5015C0154
(1522126607.036899) can0 116#06BD02DC
(1522126607.046742) can0 115#0FDC015E0156
(1522126607.046956) can0 116#06D402DC
(1522126607.056923) can0 115#0FF2015F0158
(1522126607.057042) can0 116#06C802DC
(1522126607.066891) can0 115#10070161015B
(1522126607.067083) can0 116#06C402DC
(1522126607.076928) can0 115#10220164015D
(1522126607.077152) can0 116#06BB02DC
(1522126607.086995) can0 115#10360165015B
(1522126607.087214) can0 116#06C202DC
(1522126607.097061) can0 115#104A0167015E
(1522126607.097286) can0 116#06C80306
(1522126607.107127) can0 115#106401690160
(1522126607.107339) can0 116#06C70306
(1522126607.107671) can0 117#0004000000000001
(1522126607.107815) can0 118#0000
(1522126607.108105) can0 119#0AC80F515C
(1522126607.108840) can0 122#FAFA00
(1522126607.109418) can0 124#0682838485868700
(1522126607.112357) can0 125#92767C
(1522126607.117186) can0 115#1076016B0163
(1522126607.117411) can0 116#06C80306
(1522126607.127248) can0 115#108A016D0165
(1522126607.127469) can0 116#06C70306
(1522126607.137310) can0 115#109D016E0166
(1522126607.137539) can0 116#06D60306
(1522126607.147386) can0 115#10B101700168
(1522126607.147592) can0 116#06D90306
(1522126607.157441) can0 115#10C50172016A
(1522126607.157673) can0 116#06F30306
(1522126607.167517) can0 115#10D40173016A
(1522126607.167728) can0 116#070A0306
(1522126607.177573) can0 115#10DF0174016A
(1522126607.177796) can0 116#070F0306
(1522126607.187634) can0 115#10EC0175016C
(1522126607.187853) can0 116#06DD0306
(1522126607.197700) can0 115#10FB0176016D
(1522126607.197927) can0 116#06A9030E
(1522126607.207767) can0 115#11070177016D
(1522126607.207985) can0 116#068E030E
(1522126607.208318) can0 117#0004000000000001
(1522126607.208455) can0 118#0000
(1522126607.208756) can0 119#0AA80F915C
(1522126607.209487) can0 122#FAFA00
(1522126607.210079) can0 124#8482838485000004
(1522126607.213002) can0 125#18767C
(1522126607.217832) can0 115#110F0178016D
(1522126607.218057) can0 116#0680030E
(1522126607.227894) can0 115#111A0179016F
(1522126607.228110) can0 116#0639030E
(1522126607.237962) can0 115#1128017A0171
(1522126607.238187) can0 116#05F4030E
(1522126607.248026) can0 115#112D017B016E
(1522126607.248243) can0 116#05D9030E
(1522126607.258091) can0 115#112B017A016D
(1522126607.258314) can0 116#05A9030E
(1522126607.268165) can0 115#1129017A016D
(1522126607.268372) can0 116#0576030E
(1522126607.278222) can0 115#112D017B016F
(1522126607.278444) can0 116#0535030E
(1522126607.288284) can0 115#1136017B0171
(1522126607.288505) can0 116#04C9030E
(1522126607.298354) can0 115#1142017C0173
(1522126607.298577) can0 116#046F020E
(1522126607.308420) can0 115#1151017E0174
(1522126607.308633) can0 116#0423020E
(1522126607.308965) can0 117#0004000000000001
(1522126607.309108) can0 118#0000
(1522126607.309402) can0 119#0AFC09E75C
(1522126607.310139) can0 122#FAFA00
(1522126607.310716) can0 124#0682838485868700
(1522126607.313652) can0 125#00767C
(1522126607.318484) can0 115#115B017F0174
(1522126607.318709) can0 116#03D3020E
(1522126607.328549) can0 115#1163017F0174
(1522126607.328770) can0 116#038F020E
(1522126607.338619) can0 115#116801800174
(1522126607.338838) can0 116#034F020E
(1522126607.348677) can0 115#116C01800174
(1522126607.348894) can0 116#0309020E
(1522126607.358741) can0 115#117501810177
(1522126607.358967) can0 116#02A7020E
(1522126607.368816) can0 115#118101820177
(1522126607.369026) can0 116#025D020E
(1522126607.378871) can0 115#118F01830179
(1522126607.379097) can0 116#0232020E
(1522126607.388931) can0 115#119A01840177
(1522126607.389154) can0 116#020A020E
(1522126607.398994) can0 115#119C01840177
(1522126607.399221) can0 116#01CE00DA
(1522126607.409063) can0 115#119D01840179
(1522126607.409281) can0 116#01B700DA
(1522126607.409632) can0 117#0004000000000001
(1522126607.409756) can0 118#0000
(1522126607.410052) can0 119#0B6804125C
(1522126607.410784) can0 122#FAFA00
(1522126607.411370) can0 124#8482838485000004
(1522126607.414298) can0 125#00767C
(1522126607.419125) can0 115#11A40185017B
(1522126607.419368) can0 116#018400DA
(1522126607.429197) can0 115#11A801850178
(1522126607.429407) can0 116#016900DA
(1522126607.439259) can0 115#11AC0186017B
(1522126607.439484) can0 116#012D00DA
(1522126607.449322) can0 115#11B40186017B
(1522126607.449545) can0 116#010400DA
(1522126607.459391) can0 115#11B401860178
(1522126607.459633) can0 116#010600DA
(1522126607.469458) can0 115#11B50186017B
(1522126607.469690) can0 116#00E700DA
(1522126607.479518) can0 115#11BA0187017B
(1522126607.479746) can0 116#00BA00DA
(1522126607.489585) can0 115#11C40188017D
(1522126607.489808) can0 116#008200DA
(1522126607.499682) can0 115#11CC0188017B
(1522126607.499877) can0 116#0083003E
(1522126607.509244) can0 506#413F4B70433FA67D
(1522126607.509462) can0 516#506ECA820078
(1522126607.509731) can0 514#43434300FFB605
(1522126607.509962) can0 115#11CB0188017B
(1522126607.510191) can0 116#007E003E
(1522126607.510516) can0 117#0004000000000001
(1522126607.510655) can0 118#0000
(1522126607.510949) can0 119#0BCC01255C
(1522126607.511259) can0 120#08FC25B2028A0DAC
(1522126607.511451) can0 121#09F60FC0
(1522126607.511680) can0 122#FAFA00
(1522126607.511909) can0 123#3A98
(1522126607.512262) can0 124#0682838485868700
(1522126607.512514) can0 510#0218021802220222
(1522126607.514947) can0 125#00767C
(1522126607.519778) can0 115#11CB0188017B
(1522126607.520007) can0 116#0063003E
(1522126607.529845) can0 115#11CB0188017B
(1522126607.530066) can0 116#005A003E
(1522126607.539912) can0 115#11D00189017D
(1522126607.540130) can0 116#0031003E
(1522126607.549967) can0 115#11D40189017B
(1522126607.550193) can0 116#0027003E
(1522126607.560031) can0 115#11D10189017B
(1522126607.560262) can0 116#0015003E
(1522126607.570109) can0 115#11D50189017D
(1522126607.570321) can0 116#FFF8003E
(1522126607.580168) can0 115#11D80189017B
(1522126607.580389) can0 116#0004003E
(1522126607.590224) can0 115#11D40189017B
(1522126607.590452) can0 116#0001003E
(1522126607.600287) can0 115#11D10189017B
(1522126607.600517) can0 116#FFF2FFF8
(1522126607.610358) can0 115#11CF0189017B
(1522126607.610581) can0 116#FFE0FFF8
(1522126607.610907) can0 117#0004000000000001
(1522126607.611044) can0 118#0000
(1522126607.611342) can0 119#0BFCFFB75C
(1522126607.612076) can0 122#FAFA00
(1522126607.612662) can0 124#8482838485000004
(1522126607.615596) can0 125#000000
(1522126607.620423) can0 115#11CE0189017B
(1522126607.620645) can0 116#FFE6FFF8
(1522126607.630486) can0 115#11C701880178
(1522126607.630708) can0 116#FFEEFFF8
(1522126607.640550) can0 115#11BD01870177
(1522126607.640778) can0 116#FFD9FFF8
(1522126607.650622) can0 115#11B501860177
(1522126607.650841) can0 116#FFC7FFF8
(1522126607.660681) can0 115#11AF01860177
(1522126607.660905) can0 116#FFD4FFF8
(1522126607.670753) can0 115#11A601850174
(1522126607.670969) can0 116#FFDAFFF8
(1522126607.680809) can0 115#119F01840177
(1522126607.681039) can0 116#FFCFFFF8
(1522126607.690877) can0 115#119901840174
(1522126607.691097) can0 116#FFA3FFF8
(1522126607.700943) can0 115#119001830174
(1522126607.701156) can0 116#FF6CFFBA
(1522126607.711005) can0 115#118F01830177
(1522126607.711227) can0 116#FF3FFFBA
(1522126607.711554) can0 117#0004000000000001
(1522126607.711694) can0 118#0000
(1522126607.711991) can0 119#0C10FE555C
(1522126607.712724) can0 122#FAFA00
(1522126607.713302) can0 124#0682838485868700
(1522126607.716244) can0 125#000000
(1522126607.721069) can0 115#119401840177
(1522126607.721293) can0 116#FF42FFBA
(1522126607.731137) can0 115#119701840177
(1522126607.731351) can0 116#FF19FFBA
(1522126607.741194) can0 115#119A01840177
(1522126607.741420) can0 116#FF01FFBA
(1522126607.751258) can0 115#119C01840177
(1522126607.751478) can0 116#FEE6FFBA
(1522126607.761325) can0 115#119D01840177
(1522126607.761548) can0 116#FEDDFFBA
(1522126607.771403) can0 115#119E01840177
(1522126607.771613) can0 116#FED4FFBA
(1522126607.781455) can0 115#119F01840177
(1522126607.781674) can0 116#FEC6FFBA
(1522126607.791516) can0 115#11A501850179
(1522126607.791739) can0 116#FEB1FFBA
(1522126607.801586) can0 115#11A901850177
(1522126607.801812) can0 116#FEAAFF60
(1522126607.811656) can0 115#11A701850177
(1522126607.811871) can0 116#FEC2FF60
(1522126607.812201) can0 117#0004000000000001
(1522126607.812339) can0 118#0000
(1522126607.812635) can0 119#0C3CFD485C
(1522126607.813372) can0 122#FAFA00
(1522126607.813958) can0 124#8482838485000004
(1522126607.816891) can0 125#000000
(1522126607.821719) can0 115#11A001850174
(1522126607.821936) can0 116#FEB9FF60
(1522126607.831784) can0 115#11A001850177
(1522126607.832002) can0 116#FE9FFF60
(1522126607.841848) can0 115#11A001850174
(1522126607.842073) can0 116#FEAAFF60
(1522126607.851914) can0 115#119A01840177
(1522126607.852131) can0 116#FEA4FF60
(1522126607.861977) can0 115#119601840174
(1522126607.862200) can0 116#FEB3FF60
(1522126607.872052) can0 115#118E01830174
(1522126607.872265) can0 116#FEA3FF60
(1522126607.882110) can0 115#118801820174
(1522126607.882335) can0 116#FEA2FF60
(1522126607.892179) can0 115#118301820174
(1522126607.892395) can0 116#FEA7FF60
(1522126607.902244) can0 115#118001820174
(1522126607.902459) can0 116#FEA8FF5A
(1522126607.912308) can0 115#117D01820174
(1522126607.912520) can0 116#FEA1FF5A
(1522126607.912856) can0 117#0004000000000001
(1522126607.912992) can0 118#0000
(1522126607.913287) can0 119#0C44FD0F5C
(1522126607.914024) can0 122#FAFA00
(1522126607.914602) can0 124#0682838485868700
(1522126607.917544) can0 125#000000
(1522126607.922369) can0 115#117601810172
(1522126607.922596) can0 116#FEA7FF5A
(1522126607.932445) can0 115#116B01800171
(1522126607.932652) can0 116#FE9CFF5A
(1522126607.942498) can0 115#1163017F0171
(1522126607.942719) can0 116#FEA8FF5A
(1522126607.952562) can0 115#115D017F0171
(1522126607.952782) can0 116#FEB3FF5A
(1522126607.962630) can0 115#1159017E0171
(1522126607.962855) can0 116#FE9BFF5A
(1522126607.972704) can0 115#1156017E0171
(1522126607.972916) can0 116#FE9BFF5A
(1522126607.982763) can0 115#114E017D016E
(1522126607.982982) can0 116#FE97FF5A
(1522126607.992827) can0 115#1148017D0171
(1522126607.993047) can0 116#FE97FF5A
(1522126608.002896) can0 115#113E017C016E
(1522126608.003115) can0 116#FEA9FF62
(1522126608.012956) can0 115#1137017B0171
(1522126608.013177) can0 116#FE97FF62
(1522126608.013510) can0 117#0005010001000001
(1522126608.013647) can0 118#0000
(1522126608.013942) can0 119#0C44FD065C
(1522126608.014677) can0 122#FAFA00
(1522126608.015260) can0 124#8482838485000005
(1522126608.018198) can0 125#000000
(1522126608.023020) can0 115#1132017B016E
(1522126608.023239) can0 116#FE92FF62
(1522126608.033084) can0 115#1129017A016D
(1522126608.033306) can0 116#FE94FF62
(1522126608.043150) can0 115#1127017A016D
(1522126608.043376) can0 116#FE80FF62
(1522126608.053212) can0 115#1121017A016A
(1522126608.053440) can0 116#FE7BFF62
(1522126608.063276) can0 115#111C0179016D
(1522126608.063495) can0 116#FE7AFF62
(1522126608.073346) can0 115#11190179016A
(1522126608.073561) can0 116#FE82FF62
(1522126608.083405) can0 115#11110178016A
(1522126608.083629) can0 116#FE80FF62
(1522126608.093469) can0 115#110B0178016A
(1522126608.093691) can0 116#FE76FF62
(1522126608.103537) can0 115#11060177016A
(1522126608.103757) can0 116#FE77FF4C
(1522126608.113599) can0 115#10FE01770167
(1522126608.113817) can0 116#FE74FF4C
(1522126608.114150) can0 117#0005010001000001
(1522126608.114298) can0 118#0000
(1522126608.114585) can0 119#0C4CFCD25C
(1522126608.115321) can0 122#FAFA00
(1522126608.115899) can0 124#0682838485868700
(1522126608.118840) can0 125#000000
(1522126608.123668) can0 115#10F70176016A
(1522126608.123887) can0 116#FE78FF4C
(1522126608.133727) can0 115#10F301760167
(1522126608.133946) can0 116#FE74FF4C
(1522126608.143794) can0 115#10EA01750166
(1522126608.144015) can0 116#FE6AFF4C
(1522126608.153855) can0 115#10E301740166
(1522126608.154076) can0 116#FE68FF4C
(1522126608.163922) can0 115#10DE01740166
(1522126608.164148) can0 116#FE6DFF4C
(1522126608.173992) can0 115#10DB01740166
(1522126608.174203) can0 116#FE59FF4C
(1522126608.184053) can0 115#10D801730166
(1522126608.184271) can0 116#FE56FF4C
(1522126608.194113) can0 115#10CB01720163
(1522126608.194340) can0 116#FE5BFF4C
(1522126608.204180) can0 115#10C701720166
(1522126608.204407) can0 116#FE51FF40
(1522126608.214248) can0 115#10BF01710163
(1522126608.214470) can0 116#FE53FF40
(1522126608.214797) can0 117#0005010001000001
(1522126608.214946) can0 118#0000
(1522126608.215231) can0 119#0C50FC935C
(1522126608.215969) can0 122#FAFA00
(1522126608.216550) can0 124#8482838485000005
(1522126608.219488) can0 125#000000
(1522126608.224315) can0 115#10B901710163
(1522126608.224536) can0 116#FE4BFF40
(1522126608.234376) can0 115#10B401700163
(1522126608.234596) can0 116#FE4EFF40
(1522126608.244446) can0 115#10B101700163
(1522126608.244669) can0 116#FE49FF40
(1522126608.254510) can0 115#10AE01700163
(1522126608.254729) can0 116#FE45FF40
(1522126608.264607) can0 115#10AD01700163
(1522126608.264804) can0 116#FE44FF40
(1522126608.274679) can0 115#10A6016F0160
(1522126608.274878) can0 116#FE4CFF40
(1522126608.284705) can0 115#109B016E015F
(1522126608.284931) can0 116#FE4AFF40
(1522126608.294768) can0 115#1093016D015F
(1522126608.294992) can0 116#FE47FF40
(1522126608.304834) can0 115#108E016D015F
(1522126608.305058) can0 116#FE46FF3C
(1522126608.314905) can0 115#1084016C015D
(1522126608.315120) can0 116#FE4AFF3C
(1522126608.315454) can0 117#0005010001000001
(1522126608.315592) can0 118#0000
(1522126608.315889) can0 119#0C54FC8D5C
(1522126608.316626) can0 122#FAFA00
(1522126608.317202) can0 124#0682838485868700
(1522126608.320146) can0 125#000000
(1522126608.324974) can0 115#107D016B015F
(1522126608.325192) can0 116#FE4BFF3C
(1522126608.335036) can0 115#1078016B015D
(1522126608.335249) can0 116#FE44FF3C
(1522126608.345098) can0 115#106E016A015B
(1522126608.345318) can0 116#FE46FF3C
(1522126608.355161) can0 115#106D016A015E
(1522126608.355380) can0 116#FE44FF3C
(1522126608.365229) can0 115#1067016A015B
(1522126608.365448) can0 116#FE4AFF3C
(1522126608.375300) can0 115#105C0169015B
(1522126608.375508) can0 116#FE45FF3C
(1522126608.385359) can0 115#105501680159
(1522126608.385578) can0 116#FE47FF3C
(1522126608.395418) can0 115#104A01670158
(1522126608.395641) can0 116#FE44FF3E
(1522126608.405490) can0 115#104101660158
(1522126608.405714) can0 116#FE41FF3E
(1522126608.415551) can0 115#103C01660158
(1522126608.415772) can0 116#FE3FFF3E
(1522126608.416101) can0 117#0005010001000001
(1522126608.416238) can0 118#0000
(1522126608.416535) can0 119#0C54FC865C
(1522126608.417271) can0 122#FAFA00
(1522126608.417852) can0 124#8482838485000005
(1522126608.420791) can0 125#000000
(1522126608.425608) can0 115#103701650158
(1522126608.425832) can0 116#FE3DFF3E
(1522126608.435678) can0 115#103401650158
(1522126608.435896) can0 116#FE3DFF3E
(1522126608.445745) can0 115#103201650158
(1522126608.445968) can0 116#FE38FF3E
(1522126608.455811) can0 115#103001650158
(1522126608.456028) can0 116#FE34FF3E
(1522126608.465870) can0 115#102901640156
(1522126608.466090) can0 116#FE38FF3E
(1522126608.475938) can0 115#102401640158
(1522126608.476152) can0 116#FE35FF3E
(1522126608.485997) can0 115#102101640156
(1522126608.486222) can0 116#FE35FF3E
(1522126608.496061) can0 115#101901630154
(1522126608.496280) can0 116#FE37FF3A
(1522126608.506125) can0 115#101301620154
(1522126608.506346) can0 116#FE36FF3A
(1522126608.515722) can0 506#413F4B70473FA97D
(1522126608.515941) can0 516#506ECA820078
(1522126608.516204) can0 514#47474700FFB605
(1522126608.516438) can0 115#100E01620154
(1522126608.516660) can0 116#FE37FF3A
(1522126608.516993) can0 117#0005010001000001
(1522126608.517141) can0 118#0000
(1522126608.517437) can0 119#0C54FC815C
(1522126608.517735) can0 120#08FC25B2028A0DAC
(1522126608.517927) can0 121#09F60FC0
(1522126608.518155) can0 122#FAFA00
(1522126608.518382) can0 123#3A98
(1522126608.518739) can0 124#0682838485868700
(1522126608.518991) can0 510#0224022402230223
(1522126608.521431) can0 125#000000
(1522126608.526254) can0 115#100B01620154
(1522126608.526480) can0 116#FE36FF3A
(1522126608.536320) can0 115#100301610152
(1522126608.536537) can0 116#FE37FF3A
(1522126608.546389) can0 115#0FFD01600154
(1522126608.546601) can0 116#FE38FF3A
(1522126608.556456) can0 115#0FF901600152
(1522126608.556669) can0 116#FE36FF3A
(1522126608.566519) can0 115#0FF0015F0151
(1522126608.566735) can0 116#FE37FF3A
(1522126608.576586) can0 115#0FEA015F0151
(1522126608.576796) can0 116#FE36FF3A
(1522126608.586642) can0 115#0FE5015E0151
(1522126608.586859) can0 116#FE37FF3A
(1522126608.596704) can0 115#0FDC015E014F
(1522126608.596920) can0 116#FE36FF3E
(1522126608.606769) can0 115#0FD6015D0151
(1522126608.606989) can0 116#FE36FF3E
(1522126608.616831) can0 115#0FD1015D014F
(1522126608.617045) can0 116#FE35FF3E
(1522126608.617378) can0 117#0005010001000001
(1522126608.617517) can0 118#0000
(1522126608.617811) can0 119#0C54FC8A5C
(1522126608.618546) can0 122#FAFA00
(1522126608.619130) can0 124#8482838485000005
(1522126608.622069) can0 125#000000
(1522126608.626890) can0 115#0FC8015C014E
(1522126608.627113) can0 116#FE37FF3E
(1522126608.636958) can0 115#0FC1015B014E
(1522126608.637173) can0 116#FE36FF3E
(1522126608.647021) can0 115#0FB7015A014C
(1522126608.647243) can0 116#FE36FF3E
(1522126608.657086) can0 115#0FAF015A014E
(1522126608.657301) can0 116#FE36FF3E
(1522126608.667149) can0 115#0FAA0159014C
(1522126608.667368) can0 116#FE37FF3E
(1522126608.677226) can0 115#0FA00158014A
(1522126608.677439) can0 116#FE36FF3E
(1522126608.687278) can0 115#0F990158014A
(1522126608.687499) can0 116#FE35FF3E
(1522126608.697341) can0 115#0F940157014A
(1522126608.697558) can0 116#FE34FF40
(1522126608.707409) can0 115#0F8B01570148
(1522126608.707622) can0 116#FE34FF40
(1522126608.717468) can0 115#0F840156014A
(1522126608.717692) can0 116#FE34FF40
(1522126608.718016) can0 117#0005010001000001
(1522126608.718154) can0 118#0000
(1522126608.718451) can0 119#0C54FC995C
(1522126608.719186) can0 122#FAFA00
(1522126608.719767) can0 124#0682838485868700
(1522126608.722707) can0 125#000000
(1522126608.727534) can0 115#0F7F01560148
(1522126608.727758) can0 116#FE33FF40
(1522126608.737596) can0 115#0F7B0155014A
(1522126608.737813) can0 116#FE31FF40
(1522126608.747663) can0 115#0F7901550148
(1522126608.747881) can0 116#FE32FF40
(1522126608.757725) can0 115#0F7101540147
(1522126608.757944) can0 116#FE32FF40
(1522126608.767790) can0 115#0F6B01540147
(1522126608.768014) can0 116#FE32FF40
(1522126608.777868) can0 115#0F6801540147
(1522126608.778074) can0 116#FE32FF40
(1522126608.787923) can0 115#0F5F01530145
(1522126608.788140) can0 116#FE32FF40
(1522126608.797983) can0 115#0F5901520147
(1522126608.798204) can0 116#FE32FF40
(1522126608.808050) can0 115#0F5401520145
(1522126608.808272) can0 116#FE32FF40
(1522126608.818117) can0 115#0F4B01510144
(1522126608.818332) can0 116#FE32FF40
(1522126608.818661) can0 117#0005010001000001
(1522126608.818801) can0 118#0000
(1522126608.819098) can0 119#0C54FCA25C
(1522126608.819834) can0 122#FAFA00
(1522126608.820410) can0 124#8482838485000005
(1522126608.823348) can0 125#000000
(1522126608.828175) can0 115#0F4501510144
(1522126608.828398) can0 116#FE32FF40
(1522126608.838243) can0 115#0F4001500144
(1522126608.838460) can0 116#FE32FF40
(1522126608.848310) can0 115#0F3D01500144
(1522126608.848529) can0 116#FE31FF40
(1522126608.858373) can0 115#0F34014F0141
(1522126608.858587) can0 116#FE31FF40
(1522126608.868442) can0 115#0F29014E0140
(1522126608.868652) can0 116#FE31FF40
(1522126608.878507) can0 115#0F26014E0142
(1522126608.878715) can0 116#FE31FF40
(1522126608.888567) can0 115#0F24014E0140
(1522126608.888785) can0 116#FE31FF40
(1522126608.898626) can0 115#0F17014D013D
(1522126608.898843) can0 116#FE31FF46
(1522126608.908695) can0 115#0F0E014C0140
(1522126608.908908) can0 116#FE31FF46
(1522126608.918756) can0 115#0F07014B013D
(1522126608.918971) can0 116#FE31FF46
(1522126608.919303) can0 117#0005010001000001
(1522126608.919442) can0 118#0000
(1522126608.919738) can0 119#0C54FCAF5C
(1522126608.920473) can0 122#FAFA00
(1522126608.921052) can0 124#0682838485868700
(1522126608.923993) can0 125#000000
(1522126608.928823) can0 115#0F02014B0140
(1522126608.929041) can0 116#FE31FF46
(1522126608.938886) can0 115#0EFF014B013D
(1522126608.939100) can0 116#FE30FF46
(1522126608.948949) can0 115#0EF7014A013D
(1522126608.949168) can0 116#FE31FF46
(1522126608.959011) can0 115#0EF10149013D
(1522126608.959233) can0 116#FE31FF46
(1522126608.969078) can0 115#0EEC0149013A
(1522126608.969301) can0 116#FE31FF46
(1522126608.979152) can0 115#0EE30148013D
(1522126608.979360) can0 116#FE31FF46
(1522126608.989208) can0 115#0EDD0148013D
(1522126608.989436) can0 116#FE31FF46
(1522126608.999273) can0 115#0ED80147013A
(1522126608.999489) can0 116#FE30FF48
(1522126609.009334) can0 115#0ECF01460139
(1522126609.009555) can0 116#FE31FF48
(1522126609.019398) can0 115#0EC301450137
(1522126609.019634) can0 116#FE30FF48
(1522126609.019947) can0 117#0005010001000001
(1522126609.020087) can0 118#0000
(1522126609.020376) can0 119#0C54FCBC5C
(1522126609.021114) can0 122#FAFA00
(1522126609.021697) can0 124#8482838485000005
(1522126609.024634) can0 125#000000
(1522126609.029457) can0 115#0EBA01450139
(1522126609.029695) can0 116#FE30FF48
(1522126609.039527) can0 115#0EB901440139
(1522126609.039743) can0 116#FE30FF48
(1522126609.049591) can0 115#0EB301440137
(1522126609.049814) can0 116#FE30FF48
(1522126609.059685) can0 115#0EA901430136
(1522126609.059868) can0 116#FE30FF48
(1522126609.069715) can0 115#0EA201420136
(1522126609.069942) can0 116#FE30FF48
(1522126609.079798) can0 115#0E9C01420136
(1522126609.080006) can0 116#FE2FFF48
(1522126609.089856) can0 115#0E9801420136
(1522126609.090077) can0 116#FE2FFF48
(1522126609.099922) can0 115#0E9501410136
(1522126609.100130) can0 116#FE2FFF4A
(1522126609.109985) can0 115#0E9301410136
(1522126609.110203) can0 116#FE2FFF4A
(1522126609.120048) can0 115#0E8C01410133
(1522126609.120265) can0 116#FE2FFF4A
(1522126609.120595) can0 117#0005010001000001
(1522126609.120734) can0 118#0000
(1522126609.121028) can0 119#0C54FCC75C
(1522126609.121766) can0 122#FAFA00
(1522126609.122344) can0 124#0682838485868700
(1522126609.125285) can0 125#000000
(1522126609.130118) can0 115#0E8101400133
(1522126609.130332) can0 116#FE2FFF4A
(1522126609.140180) can0 115#0E79013F0133
(1522126609.140388) can0 116#FE2FFF4A
(1522126609.150237) can0 115#0E74013F0133
(1522126609.150462) can0 116#FE2FFF4A
(1522126609.160307) can0 115#0E70013E0133
(1522126609.160522) can0 116#FE2FFF4A
(1522126609.170377) can0 115#0E6D013E0133
(1522126609.170593) can0 116#FE2FFF4A
(1522126609.180452) can0 115#0E65013D0130
(1522126609.180648) can0 116#FE2FFF4A
(1522126609.190498) can0 115#0E5F013D0133
(1522126609.190723) can0 116#FE2FFF4A
(1522126609.200567) can0 115#0E5B013C0130
(1522126609.200779) can0 116#FE2EFF4E
(1522126609.210635) can0 115#0E52013C012F
(1522126609.210852) can0 116#FE2FFF4E
(1522126609.220694) can0 115#0E4C013B012F
(1522126609.220906) can0 116#FE2EFF4E
(1522126609.221239) can0 117#0005010001000001
(1522126609.221382) can0 118#0000
(1522126609.221675) can0 119#0C54FCD35C
(1522126609.222411) can0 122#FAFA00
(1522126609.222992) can0 124#8482838485000005
(1522126609.225930) can0 125#000000
(1522126609.230760) can0 115#0E47013B012F
(1522126609.230980) can0 116#FE2EFF4E
(1522126609.240824) can0 115#0E44013A012F
(1522126609.241039) can0 116#FE2EFF4E
(1522126609.250894) can0 115#0E42013A012F
(1522126609.251110) can0 116#FE2EFF4E
(1522126609.260956) can0 115#0E40013A012F
(1522126609.261166) can0 116#FE2EFF4E
(1522126609.271020) can0 115#0E390139012D
(1522126609.271239) can0 116#FE31FF4E
(1522126609.281088) can0 115#0E340139012F
(1522126609.281298) can0 116#FE36FF4E
(1522126609.291156) can0 115#0E2A0138012D
(1522126609.291371) can0 116#FE3EFF4E
(1522126609.301216) can0 115#0E240138012F
(1522126609.301436) can0 116#FE48FF58
(1522126609.311282) can0 115#0E240138012D
(1522126609.311501) can0 116#FE51FF58
(1522126609.321343) can0 115#0E1F0137012C
(1522126609.321560) can0 116#FE5BFF58
(1522126609.321892) can0 117#0005010001000001
(1522126609.322030) can0 118#0000
(1522126609.322329) can0 119#0C50FD2B5C
(1522126609.323061) can0 122#FAFA00
(1522126609.323640) can0 124#0682838485868700
(1522126609.326579) can0 125#160000
(1522126609.331409) can0 115#0E1601360129
(1522126609.331632) can0 116#FE6BFF58
(1522126609.341477) can0 115#0E0F0136012C
(1522126609.341688) can0 116#FE73FF58
(1522126609.351538) can0 115#0E100136012C
(1522126609.351760) can0 116#FE73FF58
(1522126609.361603) can0 115#0E0B01350129
(1522126609.361823) can0 116#FE8BFF58
(1522126609.371670) can0 115#0E070135012C
(1522126609.371887) can0 116#FEA3FF58
(1522126609.381738) can0 115#0E0401350129
(1522126609.381939) can0 116#FEA9FF58
(1522126609.391792) can0 115#0DFD01340128
(1522126609.392015) can0 116#FEB9FF58
(1522126609.401857) can0 115#0DF701340128
(1522126609.402072) can0 116#FECCFF8A
(1522126609.411921) can0 115#0DF301330128
(1522126609.412147) can0 116#FEE3FF8A
(1522126609.421987) can0 115#0DF60134012A
(1522126609.422200) can0 116#FEF0FF8A
(1522126609.422533) can0 117#0004000000000001
(1522126609.422675) can0 118#0000
(1522126609.422969) can0 119#0C44FE305C
(1522126609.423702) can0 122#FAFA00
(1522126609.424287) can0 124#8482838485000004
(1522126609.427217) can0 125#2F0000
(1522126609.432051) can0 115#0DF201330128
(1522126609.432275) can0 116#FEFCFF8A
(1522126609.442115) can0 115#0DEF0133012A
(1522126609.442335) can0 116#FF19FF8A
(1522126609.452184) can0 115#0DED01330128
(1522126609.452400) can0 116#FF22FF8A
(1522126609.462244) can0 115#0DEC0133012A
(1522126609.462457) can0 116#FF3BFF8A
(1522126609.472305) can0 115#0DEB01330128
(1522126609.472534) can0 116#FF51FF8A
(1522126609.482382) can0 115#0DEA0133012A
(1522126609.482592) can0 116#FF5DFF8A
(1522126609.492445) can0 115#0DEA01330128
(1522126609.492660) can0 116#FF78FF8A
(1522126609.502504) can0 115#0DE90133012A
(1522126609.502717) can0 116#FF7BFFCE
(1522126609.512570) can0 115#0DE901330128
(1522126609.512792) can0 116#FF95FFCE
(1522126609.522169) can0 506#413F4B70453FA87D
(1522126609.522384) can0 516#506ECA820078
(1522126609.522651) can0 514#45444400FFB605
(1522126609.522883) can0 115#0DE301320128
(1522126609.523107) can0 116#FF9FFFCE
(1522126609.523434) can0 117#0004000000000001
(1522126609.523572) can0 118#0000
(1522126609.523869) can0 119#0C30FF5B5C
(1522126609.524177) can0 120#08FC25B2028A0DAC
(1522126609.524370) can0 121#09F60FC0
(1522126609.524598) can0 122#FAFA00
(1522126609.524825) can0 123#3A98
(1522126609.525182) can0 124#0682838485868700
(1522126609.525440) can0 510#0030003002310231
(1522126609.527873) can0 125#3E0000
(1522126609.532696) can0 115#0DE501320128
(1522126609.532923) can0 116#FFA5FFCE
(1522126609.542766) can0 115#0DE601320128
(1522126609.542979) can0 116#FFC0FFCE
(1522126609.552830) can0 115#0DE601320128
(1522126609.553053) can0 116#FFE1FFCE
(1522126609.562890) can0 115#0DE101320125
(1522126609.563111) can0 116#FFF6FFCE
(1522126609.572953) can0 115#0DDD01320128
(1522126609.573181) can0 116#FFFDFFCE
(1522126609.583028) can0 115#0DE001320128
(1522126609.583236) can0 116#FFDDFFCE
(1522126609.593081) can0 115#0DE301320128
(1522126609.593309) can0 116#FFFEFFCE
(1522126609.603147) can0 115#0DE401320128
(1522126609.603371) can0 116#FFF3FFFA
(1522126609.613211) can0 115#0DE501320128
(1522126609.613441) can0 116#001CFFFA
(1522126609.623274) can0 115#0DE001320125
(1522126609.623490) can0 116#0025FFFA
(1522126609.623821) can0 117#0004000000000001
(1522126609.623963) can0 118#0000
(1522126609.624261) can0 119#0C1C00475C
(1522126609.624989) can0 122#FAFA00
(1522126609.625576) can0 124#8482838485000004
(1522126609.628504) can0 125#434347
(1522126609.633338) can0 115#0DE301320128
(1522126609.633567) can0 116#002AFFFA
(1522126609.643402) can0 115#0DEA01330128
(1522126609.643626) can0 116#002FFFFA
(1522126609.653472) can0 115#0DE901330128
(1522126609.653692) can0 116#002CFFFA
(1522126609.663532) can0 115#0DEF0133012A
(1522126609.663749) can0 116#0029FFFA
(1522126609.673599) can0 115#0DF80134012C
(1522126609.673826) can0 116#0033FFFA
(1522126609.683669) can0 115#0DFF0134012C
(1522126609.683883) can0 116#003EFFFA
(1522126609.693730) can0 115#0E0A0135012E
(1522126609.693950) can0 116#004DFFFA
(1522126609.703789) can0 115#0E120136012C
(1522126609.704004) can0 116#0077002E
(1522126609.713851) can0 115#0E170137012E
(1522126609.714077) can0 116#00B0002E
(1522126609.723919) can0 115#0E160136012C
(1522126609.724136) can0 116#013E002E
(1522126609.724467) can0 117#0004000000000001
(1522126609.724604) can0 118#0000
(1522126609.724905) can0 119#0C10022A5C
(1522126609.725637) can0 122#FAFA00
(1522126609.726215) can0 124#0682838485868700
(1522126609.729148) can0 125#6A4347
(1522126609.733987) can0 115#0E0F0136012C
(1522126609.734207) can0 116#0167002E
(1522126609.744048) can0 115#0E0A01350129
(1522126609.744261) can0 116#0175002E
(1522126609.754111) can0 115#0E070135012C
(1522126609.754333) can0 116#0173002E
(1522126609.764183) can0 115#0E110136012C
(1522126609.764390) can0 116#0185002E
(1522126609.774268) can0 115#0E1D0137012F
(1522126609.774458) can0 116#01B5002E
(1522126609.784313) can0 115#0E2B01380132
(1522126609.784516) can0 116#01EB002E
(1522126609.794365) can0 115#0E350139012F
(1522126609.794588) can0 116#0233002E
(1522126609.804425) can0 115#0E370139012F
(1522126609.804641) can0 116#026F00D8
(1522126609.814495) can0 115#0E380139012F
(1522126609.814715) can0 116#02A200D8
(1522126609.824559) can0 115#0E3E013A0132
(1522126609.824775) can0 116#02CC00D8
(1522126609.825102) can0 117#0004000000000001
(1522126609.825245) can0 118#0000
(1522126609.825537) can0 119#0BD005005C
(1522126609.826271) can0 122#FAFA00
(1522126609.826858) can0 124#8482838485000004
(1522126609.829786) can0 125#8A4347
(1522126609.834621) can0 115#0E4E013B0134
(1522126609.834843) can0 116#02D900D8
(1522126609.844688) can0 115#0E5A013C0133
(1522126609.844904) can0 116#030D00D8
(1522126609.854752) can0 115#0E68013D0135
(1522126609.854973) can0 116#034900D8
(1522126609.864821) can0 115#0E78013F0136
(1522126609.865032) can0 116#039800D8
(1522126609.874882) can0 115#0E8401400138
(1522126609.875104) can0 116#03BC00D8
(1522126609.884957) can0 115#0E9201410139
(1522126609.885161) can0 116#03F200D8
(1522126609.895005) can0 115#0E9C01420139
(1522126609.895234) can0 116#043800D8
(1522126609.905073) can0 115#0EA401430139
(1522126609.905287) can0 116#047801AC
(1522126609.915138) can0 115#0EAF0144013C
(1522126609.915356) can0 116#04A201AC
(1522126609.925200) can0 115#0EB701440139
(1522126609.925421) can0 116#04D301AC
(1522126609.925749) can0 117#0004000000000001
(1522126609.925887) can0 118#0000
(1522126609.926185) can0 119#0B7C091B5C
(1522126609.926918) can0 122#FAFA00
(1522126609.927497) can0 124#0682838485868700
(1522126609.930434) can0 125#984347
(1522126609.935261) can0 115#0EC20145013C
(1522126609.935485) can0 116#04FE01AC
(1522126609.945332) can0 115#0ED60147013E
(1522126609.945539) can0 116#051D01AC
(1522126609.955390) can0 115#0EDE0148013D
(1522126609.955615) can0 116#054F01AC
(1522126609.965460) can0 115#0EE50148013F
(1522126609.965676) can0 116#058001AC
(1522126609.975521) can0 115#0EF5014A0142
(1522126609.975740) can0 116#059A01AC
(1522126609.985598) can0 115#0F06014B0144
(1522126609.985799) can0 116#05B301AC
(1522126609.995650) can0 115#0F12014C0144
(1522126609.995870) can0 116#05E8026A
(1522126610.005713) can0 115#0F1B014D0144
(1522126610.005933) can0 116#0605026A
(1522126610.015780) can0 115#0F28014E0146
(1522126610.016000) can0 116#061A026A
(1522126610.025846) can0 115#0F3C01500149
(1522126610.026055) can0 116#0636026A
(1522126610.026388) can0 117#0004000000000001
(1522126610.026532) can0 118#0000
(1522126610.026820) can0 119#0B380C675C
(1522126610.027557) can0 122#FAFA00
(1522126610.028143) can0 124#8482838485000004
(1522126610.031073) can0 125#9A4347
(1522126610.035907) can0 115#0F4B01510147
(1522126610.036127) can0 116#0647026A
(1522126610.045972) can0 115#0F550152014A
(1522126610.046187) can0 116#0664026A
(1522126610.056040) can0 115#0F680154014C
(1522126610.056256) can0 116#066D026A
(1522126610.066102) can0 115#0F760155014A
(1522126610.066311) can0 116#0688026A
(1522126610.076165) can0 115#0F800156014D
(1522126610.076386) can0 116#069E026A
(1522126610.086239) can0 115#0F930157014F
(1522126610.086445) can0 116#06A2026A
(1522126610.096294) can0 115#0FA601590151
(1522126610.096515) can0 116#06AF02D8
(1522126610.106357) can0 115#0FBA015B0154
(1522126610.106567) can0 116#06BB02D8
(1522126610.116422) can0 115#0FD3015D0156
(1522126610.116642) can0 116#06B702D8
(1522126610.126485) can0 115#0FE6015E0154
(1522126610.126702) can0 116#06D002D8
(1522126610.127034) can0 117#0004000000000001
(1522126610.127178) can0 118#0000
(1522126610.127467) can0 119#0AF40E845C
(1522126610.128203) can0 122#FAFA00
(1522126610.128781) can0 124#0682838485868700
(1522126610.131723) can0 125#9F4347
(1522126610.136552) can0 115#0FF301600157
(1522126610.136769) can0 116#06DD02D8
(1522126610.146612) can0 115#100801610159
(1522126610.146823) can0 116#06D602D8
(1522126610.156673) can0 115#101D0163015B
(1522126610.156899) can0 116#06F002D8
(1522126610.166737) can0 115#102D0165015B
(1522126610.166957) can0 116#070302D8
(1522126610.176803) can0 115#103E0166015E
(1522126610.177031) can0 116#071202D8
(1522126610.186875) can0 115#104F0167015F
(1522126610.187081) can0 116#071A02D8
(1522126610.196930) can0 115#106201690162
(1522126610.197155) can0 116#071F032E
(1522126610.206995) can0 115#107B016B0164
(1522126610.207210) can0 116#072C032E
(1522126610.217055) can0 115#108D016D0163
(1522126610.217282) can0 116#0735032E
(1522126610.227123) can0 115#10A0016E0165
(1522126610.227339) can0 116#0730032E
(1522126610.227669) can0 117#0004000000000001
(1522126610.227812) can0 118#0000
(1522126610.228104) can0 119#0AC410565C
(1522126610.228838) can0 122#FAFA00
(1522126610.229423) can0 124#8482838485000004
(1522126610.232351) can0 125#A94347
(1522126610.237186) can0 115#10B901710168
(1522126610.237407) can0 116#0743032E
(1522126610.247247) can0 115#10CB0172016A
(1522126610.247467) can0 116#0746032E
(1522126610.257312) can0 115#10DE0174016C
(1522126610.257537) can0 116#0744032E
(1522126610.267379) can0 115#10F70176016F
(1522126610.267590) can0 116#074D032E
(1522126610.277447) can0 115#11090178016D
(1522126610.277668) can0 116#0768032E
(1522126610.287516) can0 115#111C0179016F
(1522126610.287728) can0 116#0773032E
(1522126610.297570) can0 115#1135017B0172
(1522126610.297797) can0 116#07630376
(1522126610.307637) can0 115#114C017D0174
(1522126610.307850) can0 116#07660376
(1522126610.317700) can0 115#1163017F0177
(1522126610.317929) can0 116#077D0376
(1522126610.327769) can0 115#117A01810179
(1522126610.327986) can0 116#07780376
(1522126610.328318) can0 117#0004000000000001
(1522126610.328466) can0 118#0000
(1522126610.328750) can0 119#0A9C12275C
(1522126610.329487) can0 122#FAFA00
(1522126610.330070) can0 124#0682838485868700
(1522126610.332997) can0 125#AF4347
(1522126610.337832) can0 115#11900183017B
(1522126610.338054) can0 116#07840376
(1522126610.347895) can0 115#11A50185017D
(1522126610.348109) can0 116#07860376
(1522126610.357956) can0 115#11BB0187017E
(1522126610.358180) can0 116#07980376
(1522126610.368024) can0 115#11D001890181
(1522126610.368238) can0 116#079D0376
(1522126610.378083) can0 115#11E5018A0181
(1522126610.378309) can0 116#07A90376
(1522126610.388155) can0 115#11FA018C0184
(1522126610.388363) can0 116#07A90376
(1522126610.398209) can0 115#1214018F0186
(1522126610.398436) can0 116#07A803C8
(1522126610.408272) can0 115#122D01910188
(1522126610.408493) can0 116#07A203C8
(1522126610.418337) can0 115#12450193018B
(1522126610.418562) can0 116#079D03C8
(1522126610.428401) can0 115#125C0195018C
(1522126610.428616) can0 116#07A103C8
(1522126610.428950) can0 117#0004000000000001
(1522126610.429094) can0 118#0000
(1522126610.429381) can0 119#0A7413D35C
(1522126610.430123) can0 122#FAFA00
(1522126610.430708) can0 124#8482838485000004
(1522126610.433633) can0 125#B04347
(1522126610.438466) can0 115#12720197018F
(1522126610.438690) can0 116#07A003C8
(1522126610.448529) can0 115#128E01990191
(1522126610.448746) can0 116#07A703C8
(1522126610.458589) can0 115#12AD019C0194
(1522126610.458814) can0 116#07A603C8
(1522126610.468654) can0 115#12C4019E0193
(1522126610.468873) can0 116#07B803C8
(1522126610.478720) can0 115#12DA01A00195
(1522126610.478946) can0 116#07A503C8
(1522126610.488793) can0 115#12F001A20196
(1522126610.489007) can0 116#07C403C8
(1522126610.498855) can0 115#130001A30199
(1522126610.499074) can0 116#07B103FA
(1522126610.508916) can0 115#131701A5019B
(1522126610.509131) can0 116#07A503FA
(1522126610.518976) can0 115#133301A7019E
(1522126610.519207) can0 116#07D503FA
(1522126610.528581) can0 506#41404C70443FA77D
(1522126610.528796) can0 516#506ECA820078
(1522126610.529069) can0 514#44434400FFB605
(1522126610.529294) can0 115#134701A9019D
(1522126610.529517) can0 116#07D203FA
(1522126610.529854) can0 117#0004000000000001
(1522126610.529992) can0 118#0000
(1522126610.530283) can0 119#0A5415A85C
(1522126610.530591) can0 120#08FC25B2028A0DAC
(1522126610.530784) can0 121#09F60FC0
(1522126610.531011) can0 122#FAFA00
(1522126610.531240) can0 123#3A98
(1522126610.531596) can0 124#0682838485868700
(1522126610.531848) can0 510#0232023201250125
(1522126610.534275) can0 125#AF4347
(1522126610.539113) can0 115#135001AA019F
(1522126610.539339) can0 116#07C303FA
(1522126610.549173) can0 115#136201AB01A2
(1522126610.549394) can0 116#07D603FA
(1522126610.559236) can0 115#137A01AD01A4
(1522126610.559467) can0 116#07DA03FA
(1522126610.569302) can0 115#138C01AF01A4
(1522126610.569523) can0 116#07F503FA
(1522126610.579366) can0 115#139E01B101A6
(1522126610.579595) can0 116#080203FA
(1522126610.589444) can0 115#13B101B201A8
(1522126610.589678) can0 116#080103FA
(1522126610.599495) can0 115#13C501B401AA
(1522126610.599720) can0 116#0805044E
(1522126610.609556) can0 115#13D901B601AB
(1522126610.609779) can0 116#0806044E
(1522126610.619641) can0 115#13F301B801AE
(1522126610.619843) can0 116#07F6044E
(1522126610.629704) can0 115#140B01BA01AE
(1522126610.629907) can0 116#0803044E
(1522126610.630237) can0 117#0004000000000001
(1522126610.630374) can0 118#0000
(1522126610.630670) can0 119#0A3017595C
(1522126610.631405) can0 122#FAFA00
(1522126610.631991) can0 124#8482838485000004
(1522126610.634918) can0 125#AFB2BB
(1522126610.639747) can0 115#142201BC01B1
(1522126610.639976) can0 116#0803044E
(1522126610.649818) can0 115#143901BE01B2
(1522126610.650032) can0 116#0806044E
(1522126610.659878) can0 115#144F01C001B5
(1522126610.660099) can0 116#0809044E
(1522126610.669936) can0 115#146A01C201B7
(1522126610.670159) can0 116#0814044E
(1522126610.680002) can0 115#148401C401BA
(1522126610.680231) can0 116#081F044E
(1522126610.690081) can0 115#149C01C601BC
(1522126610.690290) can0 116#081F044E
(1522126610.700142) can0 115#14B301C801BF
(1522126610.700355) can0 116#0827049A
(1522126610.710196) can0 115#14CA01CA01BF
(1522126610.710418) can0 116#0826049A
(1522126610.720261) can0 115#14E601CD01C2
(1522126610.720491) can0 116#0817049A
(1522126610.730337) can0 115#150001CF01C3
(1522126610.730551) can0 116#0829049A
(1522126610.730880) can0 117#0004000000000001
(1522126610.731028) can0 118#0000
(1522126610.731315) can0 119#0A08194D5C
(1522126610.732049) can0 122#FAFA00
(1522126610.732627) can0 124#0682838485868700
(1522126610.735562) can0 125#AFB2BB
(1522126610.740400) can0 115#151801D101C6
(1522126610.740616) can0 116#082A049A
(1522126610.750458) can0 115#153501D401C8
(1522126610.750679) can0 116#0830049A
(1522126610.760525) can0 115#154A01D501CA
(1522126610.760750) can0 116#082E049A
(1522126610.770599) can0 115#156501D801CC
(1522126610.770811) can0 116#083D049A
(1522126610.780656) can0 115#158301DA01CF
(1522126610.780879) can0 116#083E049A
(1522126610.790727) can0 115#159F01DD01D1
(1522126610.790939) can0 116#083A049A
(1522126610.800787) can0 115#15BF01E001D4
(1522126610.801007) can0 116#082204D6
(1522126610.810853) can0 115#15D601E101D5
(1522126610.811068) can0 116#085B04D6
(1522126610.820914) can0 115#15EC01E301D7
(1522126610.821135) can0 116#07FF04D6
(1522126610.830980) can0 115#160801E601DA
(1522126610.831196) can0 116#080C04D6
(1522126610.831529) can0 117#0004000000000001
(1522126610.831677) can0 118#0000
(1522126610.831963) can0 119#09C81AEB5C
(1522126610.832696) can0 122#FAFA00
(1522126610.833284) can0 124#8482838485000004
(1522126610.836206) can0 125#A9B2BB
(1522126610.841041) can0 115#162201E801DC
(1522126610.841268) can0 116#07F604D6
(1522126610.851110) can0 115#163A01EA01DF
(1522126610.851326) can0 116#080504D6
(1522126610.861173) can0 115#164C01EC01DF
(1522126610.861391) can0 116#07FC04D6
(1522126610.871230) can0 115#165E01ED01E1
(1522126610.871453) can0 116#07BE04D6
(1522126610.881298) can0 115#167701EF01E4
(1522126610.881521) can0 116#07A304D6
(1522126610.891373) can0 115#168F01F101E5
(1522126610.891582) can0 116#07B404D6
(1522126610.901428) can0 115#16A001F301E5
(1522126610.901645) can0 116#07B104B4
(1522126610.911490) can0 115#16B201F401E8
(1522126610.911707) can0 116#078C04B4
(1522126610.921557) can0 115#16BF01F601E5
(1522126610.921777) can0 116#078504B4
(1522126610.931622) can0 115#16C901F601E8
(1522126610.931838) can0 116#074604B4
(1522126610.932170) can0 117#0004000000000001
(1522126610.932317) can0 118#0000
(1522126610.932606) can0 119#09DC193F5C
(1522126610.933338) can0 122#FAFA00
(1522126610.933917) can0 124#0682838485868700
(1522126610.936852) can0 125#00B2BB
(1522126610.941682) can0 115#16D501F701E9
(1522126610.941904) can0 116#072F04B4
(1522126610.951755) can0 115#16DE01F801E9
(1522126610.951966) can0 116#06EA04B4
(1522126610.961816) can0 115#16EB01F901EC
(1522126610.962038) can0 116#06BE04B4
(1522126610.971884) can0 115#16F401FA01E9
(1522126610.972095) can0 116#069304B4
(1522126610.981943) can0 115#16F501FA01E9
(1522126610.982160) can0 116#065D04B4
(1522126610.992016) can0 115#16FB01FB01EC
(1522126610.992227) can0 116#060004B4
(1522126611.002071) can0 115#170501FC01EC
(1522126611.002294) can0 116#05D6039E
(1522126611.012140) can0 115#170701FC01EA
(1522126611.012354) can0 116#0590039E
(1522126611.022200) can0 115#170E01FC01EC
(1522126611.022415) can0 116#0524039E
(1522126611.032263) can0 115#171801FD01EC
(1522126611.032478) can0 116#04E7039E
(1522126611.032812) can0 117#0004000000000001
(1522126611.032959) can0 118#0000
(1522126611.033245) can0 119#0A6810C45C
(1522126611.033981) can0 122#FAFA00
(1522126611.034569) can0 124#8482838485000004
(1522126611.037497) can0 125#00B2BB
(1522126611.042327) can0 115#171B01FE01EC
(1522126611.042550) can0 116#04AA039E
(1522126611.052399) can0 115#171C01FE01EC
(1522126611.052608) can0 116#0456039E
(1522126611.062456) can0 115#172301FE01EF
(1522126611.062674) can0 116#0413039E
(1522126611.072522) can0 115#172801FF01EC
(1522126611.072737) can0 116#03BD039E
(1522126611.082584) can0 115#172B01FF01EF
(1522126611.082805) can0 116#036D039E
(1522126611.092661) can0 115#1734020001F0
(1522126611.092862) can0 116#032E039E
(1522126611.102718) can0 115#173F020101F3
(1522126611.102930) can0 116#02DA01CA
(1522126611.112777) can0 115#1748020101F0
(1522126611.112992) can0 116#02AA01CA
(1522126611.122843) can0 115#1748020101F0
(1522126611.123059) can0 116#026501CA
(1522126611.132904) can0 115#174E020201F3
(1522126611.133120) can0 116#022B01CA
(1522126611.133452) can0 117#0004000000000001
(1522126611.133599) can0 118#0000
(1522126611.133885) can0 119#0ABC07475C
(1522126611.134622) can0 122#FAFA00
(1522126611.135200) can0 124#0682838485868700
(1522126611.138136) can0 125#00B2BB
(1522126611.142966) can0 115#1758020301F4
(1522126611.143185) can0 116#01EA01CA
(1522126611.153032) can0 115#1760020301F4
(1522126611.153246) can0 116#01AC01CA
(1522126611.163094) can0 115#1765020401F4
(1522126611.163315) can0 116#017801CA
(1522126611.173158) can0 115#176E020501F6
(1522126611.173377) can0 116#015601CA
(1522126611.183221) can0 115#1775020501F4
(1522126611.183442) can0 116#013801CA
(1522126611.193293) can0 115#177A020601F6
(1522126611.193501) can0 116#011F01CA
(1522126611.203350) can0 115#177E020601F4
(1522126611.203572) can0 116#010A00A2
(1522126611.213412) can0 115#177B020601F4
(1522126611.213629) can0 116#00ED00A2
(1522126611.223478) can0 115#177E020601F6
(1522126611.223695) can0 116#00D300A2
(1522126611.233543) can0 115#1781020601F4
(1522126611.233759) can0 116#00A400A2
(1522126611.234090) can0 117#0004000000000001
(1522126611.234228) can0 118#0000
(1522126611.234522) can0 119#0B6C018D5C
(1522126611.235258) can0 122#FAFA00
(1522126611.235845) can0 124#8482838485000004
(1522126611.238771) can0 125#00B2BB
(1522126611.243607) can0 115#1783020601F6
(1522126611.243826) can0 116#007B00A2
(1522126611.253667) can0 115#178A020701F6
(1522126611.253887) can0 116#006100A2
(1522126611.263734) can0 115#178F020801F6
(1522126611.263947) can0 116#005300A2
(1522126611.273827) can0 115#1793020801F6
(1522126611.274013) can0 116#005F00A2
(1522126611.283855) can0 115#1795020801F6
(1522126611.284091) can0 116#003300A2
(1522126611.293929) can0 115#1797020801F6
(1522126611.294133) can0 116#002300A2
(1522126611.303979) can0 115#1793020801F4
(1522126611.304201) can0 116#FFFC0016
(1522126611.314046) can0 115#1796020801F6
(1522126611.314265) can0 116#FFF30016
(1522126611.324112) can0 115#1799020801F4
(1522126611.324330) can0 116#FFD70016
(1522126611.334173) can0 115#179A020801F6
(1522126611.334388) can0 116#FFED0016
(1522126611.334719) can0 117#0004000000000001
(1522126611.334857) can0 118#0000
(1522126611.335154) can0 119#0BE4FFC75C
(1522126611.335889) can0 122#FAFA00
(1522126611.336465) can0 124#0682838485868700
(1522126611.339401) can0 125#00B2BB
(1522126611.344236) can0 115#178F020801F4
(1522126611.344455) can0 116#FFFD0016
(1522126611.354296) can0 115#178D020701F6
(1522126611.354518) can0 116#FFEF0016
(1522126611.364363) can0 115#178C020701F4
(1522126611.364592) can0 116#FFE10016
(1522126611.374429) can0 115#1785020701F4
(1522126611.374646) can0 116#FFE20016
(1522126611.384495) can0 115#1780020601F4
(1522126611.384714) can0 116#FFDB0016
(1522126611.394564) can0 115#1777020501F1
(1522126611.394775) can0 116#FFE9FFEC
(1522126611.404625) can0 115#1770020501F1
(1522126611.404846) can0 116#FFD9FFEC
(1522126611.414688) can0 115#176B020401F1
(1522126611.414905) can0 116#FFB6FFEC
(1522126611.424754) can0 115#1762020401F0
(1522126611.424968) can0 116#FF9CFFEC
(1522126611.434816) can0 115#1761020401F3
(1522126611.435030) can0 116#FF74FFEC
(1522126611.435363) can0 117#0004000000000001
(1522126611.435501) can0 118#0000
(1522126611.435797) can0 119#0C04FE625C
(1522126611.436533) can0 122#FAFA00
(1522126611.437118) can0 124#8482838485000004
(1522126611.440048) can0 125#00B2BB
(1522126611.444879) can0 115#1766020401F4
(1522126611.445099) can0 116#FF63FFEC
(1522126611.454945) can0 115#1764020401F1
(1522126611.455158) can0 116#FF42FFEC
(1522126611.465008) can0 115#1762020401F4
(1522126611.465226) can0 116#FF3FFFEC
(1522126611.475070) can0 115#1767020401F4
(1522126611.475291) can0 116#FF32FFEC
(1522126611.485138) can0 115#1765020401F1
(1522126611.485355) can0 116#FF27FFEC
(1522126611.495209) can0 115#1763020401F4
(1522126611.495417) can0 116#FF31FF7C
(1522126611.505262) can0 115#1762020401F1
(1522126611.505486) can0 116#FF17FF7C
(1522126611.515330) can0 115#175B020301F0
(1522126611.515547) can0 116#FF13FF7C
(1522126611.525398) can0 115#1756020301F0
(1522126611.525616) can0 116#FF12FF7C
(1522126611.534996) can0 506#41404C70483FAA7D
(1522126611.535207) can0 516#506ECA820078
(1522126611.535473) can0 514#47474800FFB605
(1522126611.535704) can0 115#174D020201EE
(1522126611.535928) can0 116#FF21FF7C
(1522126611.536259) can0 117#2005010000010001
(1522126611.536396) can0 118#0000
(1522126611.536693) can0 119#0C1CFD795A
(1522126611.537002) can0 120#08FC25B2028A0DAC
(1522126611.537194) can0 121#09F60FC0
(1522126611.537421) can0 122#FAFA00
(1522126611.537649) can0 123#3A98
(1522126611.538005) can0 124#0682838485868720
(1522126611.538278) can0 510#0000000000000000
(1522126611.540692) can0 125#00B2BB
(1522126611.545519) can0 115#1741020101EC
(1522126611.545741) can0 116#FF08FF7C
(1522126611.555595) can0 115#1738020001EC
(1522126611.555809) can0 116#FF0BFF7C
(1522126611.565652) can0 115#172C01FF01EA
(1522126611.565877) can0 116#FF10FF7C
(1522126611.575716) can0 115#171D01FE01E9
(1522126611.575938) can0 116#FF06FF7C
(1522126611.585785) can0 115#171801FD01EC
(1522126611.586002) can0 116#FEF6FF7C
(1522126611.595856) can0 115#170F01FC01E9
(1522126611.596065) can0 116#FF0DFF68
(1522126611.605911) can0 115#170301FB01E9
(1522126611.606134) can0 116#FEF7FF68
(1522126611.615972) can0 115#16FA01FB01E7
(1522126611.616193) can0 116#FEFBFF68
(1522126611.626034) can0 115#16EE01FA01E5
(1522126611.626252) can0 116#FEEEFF68
(1522126611.636095) can0 115#16E501F901E5
(1522126611.636315) can0 116#FEE0FF68
(1522126611.636645) can0 117#2005010000010001
(1522126611.636784) can0 118#0000
(1522126611.637080) can0 119#0C28FCCF5B
(1522126611.637815) can0 122#FAFA00
(1522126611.638397) can0 124#8482838485000005
(1522126611.641336) can0 125#000000
(1522126611.646161) can0 115#16DE01F801E5
(1522126611.646380) can0 116#FEDDFF68
(1522126611.656221) can0 115#16D401F701E3
(1522126611.656438) can0 116#FED4FF68
(1522126611.666286) can0 115#16C701F601E2
(1522126611.666501) can0 116#FEDDFF68
(1522126611.676342) can0 115#16BD01F501E2
(1522126611.676565) can0 116#FEE9FF68
(1522126611.686409) can0 115#16B101F401E0
(1522126611.686629) can0 116#FEE6FF68
(1522126611.696479) can0 115#16A801F401E2
(1522126611.696687) can0 116#FEB9FF3E
(1522126611.706535) can0 115#16A101F301E0
(1522126611.706756) can0 116#FEBFFF3E
(1522126611.716597) can0 115#169601F201DF
(1522126611.716814) can0 116#FEB9FF3E
(1522126611.726662) can0 115#168F01F101DF
(1522126611.726881) can0 116#FEB6FF3E
(1522126611.736723) can0 115#168401F001DC
(1522126611.736940) can0 116#FEBAFF3E
(1522126611.737271) can0 117#2005010000010001
(1522126611.737408) can0 118#0000
(1522126611.737707) can0 119#0C30FC755B
(1522126611.738441) can0 122#FAFA00
(1522126611.739020) can0 124#0682838485868720
(1522126611.741962) can0 125#000000
(1522126611.746787) can0 115#167C01F001DF
(1522126611.747007) can0 116#FEA9FF3E
(1522126611.756855) can0 115#167B01F001DF
(1522126611.757070) can0 116#FEA2FF3E
(1522126611.766911) can0 115#167501EF01DC
(1522126611.767140) can0 116#FE8CFF3E
(1522126611.776976) can0 115#166C01EE01DB
(1522126611.777199) can0 116#FE8BFF3E
(1522126611.787037) can0 115#166401EE01DB
(1522126611.787259) can0 116#FE86FF3E
(1522126611.797108) can0 115#165901ED01D8
(1522126611.797322) can0 116#FE97FF28
(1522126611.807162) can0 115#165201EC01DB
(1522126611.807389) can0 116#FE8DFF28
(1522126611.817228) can0 115#164C01EC01D8
(1522126611.817447) can0 116#FE8EFF28
(1522126611.827292) can0 115#164201EB01D8
(1522126611.827513) can0 116#FE86FF28
(1522126611.837358) can0 115#163B01EA01D8
(1522126611.837576) can0 116#FE88FF28
(1522126611.837909) can0 117#2005010001010001
(1522126611.838049) can0 118#0000
(1522126611.838347) can0 119#0C44FBFF5C
(1522126611.839079) can0 122#FAFA00
(1522126611.839669) can0 124#8482838485000005
(1522126611.842600) can0 125#000000
(1522126611.847423) can0 115#163001E901D5
(1522126611.847646) can0 116#FE8AFF28
(1522126611.857490) can0 115#162201E801D5
(1522126611.857706) can0 116#FE8EFF28
(1522126611.867550) can0 115#161901E701D5
(1522126611.867776) can0 116#FE8BFF28
(1522126611.877614) can0 115#161101E701D5
(1522126611.877835) can0 116#FE88FF28
(1522126611.887693) can0 115#160101E501D2
(1522126611.887903) can0 116#FE99FF28
(1522126611.897758) can0 115#15EF01E401D1
(1522126611.897968) can0 116#FE9BFF30
(1522126611.907812) can0 115#15E201E301CE
(1522126611.908030) can0 116#FEA9FF30
(1522126611.917876) can0 115#15D301E101CE
(1522126611.918100) can0 116#FEA3FF30
(1522126611.927946) can0 115#15C301E001CB
(1522126611.928167) can0 116#FEB0FF30
(1522126611.938006) can0 115#15B101DE01CA
(1522126611.938229) can0 116#FEACFF30
(1522126611.938557) can0 117#2005010000010001
(1522126611.938696) can0 118#0000
(1522126611.938991) can0 119#0C44FC775B
(1522126611.939730) can0 122#FAFA00
(1522126611.940303) can0 124#0682838485868720
(1522126611.943245) can0 125#000000
(1522126611.948066) can0 115#15A401DD01CA
(1522126611.948292) can0 116#FEB3FF30
(1522126611.958138) can0 115#159501DC01C7
(1522126611.958357) can0 116#FEA8FF30
(1522126611.968202) can0 115#158501DB01C7
(1522126611.968427) can0 116#FEB4FF30
(1522126611.978270) can0 115#157301D901C4
(1522126611.978490) can0 116#FEACFF30
(1522126611.988334) can0 115#156101D701C3
(1522126611.988561) can0 116#FEA1FF30
(1522126611.998405) can0 115#154D01D601C1
(1522126611.998617) can0 116#FEB0FF42
(1522126612.008463) can0 115#153A01D401BF
(1522126612.008688) can0 116#FEABFF42
(1522126612.018527) can0 115#152C01D301BF
(1522126612.018749) can0 116#FEA5FF42
(1522126612.028593) can0 115#152101D201BF
(1522126612.028812) can0 116#FE92FF42
(1522126612.038656) can0 115#151A01D101BF
(1522126612.038876) can0 116#FE84FF42
(1522126612.039207) can0 117#2005010001010001
(1522126612.039346) can0 118#0000
(1522126612.039669) can0 119#0C40FC285B
(1522126612.040378) can0 122#FAFA00
(1522126612.040960) can0 124#8482838485000005
(1522126612.043906) can0 125#000000
(1522126612.048723) can0 115#150F01D001BD
(1522126612.048944) can0 116#FE80FF42
(1522126612.058787) can0 115#150101CF01BC
(1522126612.058999) can0 116#FE74FF42
(1522126612.068851) can0 115#14FD01CF01BF
(1522126612.069070) can0 116#FE65FF42
(1522126612.078912) can0 115#14FA01CF01BC
(1522126612.079131) can0 116#FE5FFF42
(1522126612.088974) can0 115#14F201CE01BC
(1522126612.089200) can0 116#FE4FFF42
(1522126612.099050) can0 115#14F201CE01BF
(1522126612.099261) can0 116#FE4FFF0A
(1522126612.109102) can0 115#14F701CE01BC
(1522126612.109323) can0 116#FE3FFF0A
(1522126612.119166) can0 115#14F601CE01BF
(1522126612.119384) can0 116#FE46FF0A
(1522126612.129233) can0 115#14F401CE01BF
(1522126612.129456) can0 116#FE44FF0A
(1522126612.139295) can0 115#14F401CE01BD
(1522126612.139519) can0 116#FE40FF0A
(1522126612.139851) can0 117#2005010001010001
(1522126612.139990) can0 118#0000
(1522126612.140278) can0 119#0C4CFB835B
(1522126612.141013) can0 122#FAFA00
(1522126612.141592) can0 124#0682838485868720
(1522126612.144532) can0 125#000000
(1522126612.149353) can0 115#14ED01CD01BC
(1522126612.149577) can0 116#FE48FF0A
(1522126612.159425) can0 115#14E901CD01BC
(1522126612.159661) can0 116#FE4AFF0A
(1522126612.169487) can0 115#14E001CC01BA
(1522126612.169718) can0 116#FE50FF0A
(1522126612.179551) can0 115#14D901CC01BC
(1522126612.179771) can0 116#FE53FF0A
(1522126612.189644) can0 115#14CF01CB01BA
(1522126612.189847) can0 116#FE55FF0A
(1522126612.199705) can0 115#14C201CA01B8
(1522126612.199900) can0 116#FE5CFF16
(1522126612.209754) can0 115#14B801C901B6
(1522126612.209969) can0 116#FE5CFF16
(1522126612.219822) can0 115#14AB01C801B5
(1522126612.220026) can0 116#FE61FF16
(1522126612.229873) can0 115#149C01C601B3
(1522126612.230099) can0 116#FE66FF16
(1522126612.239938) can0 115#148C01C501B2
(1522126612.240157) can0 116#FE65FF16
(1522126612.240492) can0 117#2005010001010001
(1522126612.240629) can0 118#0000
(1522126612.240925) can0 119#0C50FBF95B
(1522126612.241661) can0 122#FAFA00
(1522126612.242242) can0 124#8482838485000005
(1522126612.245180) can0 125#000000
(1522126612.250010) can0 115#148001C401B2
(1522126612.250227) can0 116#FE68FF16
(1522126612.260072) can0 115#146C01C201B0
(1522126612.260288) can0 116#FE6BFF16
(1522126612.270133) can0 115#145801C101AE
(1522126612.270356) can0 116#FE6AFF16
(1522126612.280198) can0 115#144901BF01AC
(1522126612.280412) can0 116#FE70FF16
(1522126612.290268) can0 115#143901BE01AB
(1522126612.290484) can0 116#FE69FF16
(1522126612.300321) can0 115#142701BC01A9
(1522126612.300542) can0 116#FE6AFF26
(1522126612.310391) can0 115#141501BB01A8
(1522126612.310615) can0 116#FE6BFF26
(1522126612.320455) can0 115#140201B901A5
(1522126612.320670) can0 116#FE6DFF26
(1522126612.330525) can0 115#13EF01B701A4
(1522126612.330743) can0 116#FE6BFF26
(1522126612.340581) can0 115#13DB01B601A1
(1522126612.340798) can0 116#FE6BFF26
(1522126612.341132) can0 117#2005010001010001
(1522126612.341273) can0 118#0000
(1522126612.341564) can0 119#0C48FC2B5B
(1522126612.342300) can0 122#FAFA00
(1522126612.342876) can0 124#0682838485868720
(1522126612.345819) can0 125#000000
(1522126612.350646) can0 115#13CC01B401A4
(1522126612.350872) can0 116#FE63FF26
(1522126612.360710) can0 115#13BC01B301A1
(1522126612.360932) can0 116#FE5FFF26
(1522126612.370782) can0 115#13AB01B201A1
(1522126612.370999) can0 116#FE5CFF26
(1522126612.380838) can0 115#13A401B101A1
(1522126612.381053) can0 116#FE52FF26
(1522126612.390903) can0 115#139901B0019E
(1522126612.391128) can0 116#FE4AFF26
(1522126612.400976) can0 115#139101AF01A1
(1522126612.401192) can0 116#FE3EFF12
(1522126612.411031) can0 115#139101AF01A1
(1522126612.411263) can0 116#FE37FF12
(1522126612.421097) can0 115#139101AF01A1
(1522126612.421313) can0 116#FE36FF12
(1522126612.431160) can0 115#139101AF01A1
(1522126612.431385) can0 116#FE34FF12
(1522126612.441230) can0 115#139701B001A3
(1522126612.441447) can0 116#FE32FF12
(1522126612.441779) can0 117#2005010001010001
(1522126612.441927) can0 118#0000
(1522126612.442212) can0 119#0C4CFBAF5C
(1522126612.442950) can0 122#FAFA00
(1522126612.443533) can0 124#8482838485000005
(1522126612.446470) can0 125#000000
(1522126612.451298) can0 115#139B01B001A1
(1522126612.451519) can0 116#FE33FF12
(1522126612.461358) can0 115#139801B001A1
(1522126612.461569) can0 116#FE3AFF12
(1522126612.471419) can0 115#139701B001A1
(1522126612.471643) can0 116#FE31FF12
(1522126612.481485) can0 115#139501B001A1
(1522126612.481705) can0 116#FE36FF12
(1522126612.491556) can0 115#139401B001A1
(1522126612.491771) can0 116#FE3AFF12
(1522126612.501623) can0 115#138E01AF019E
(1522126612.501830) can0 116#FE40FF16
(1522126612.511679) can0 115#138301AE019D
(1522126612.511902) can0 116#FE42FF16
(1522126612.521745) can0 115#137C01AE019D
(1522126612.521964) can0 116#FE40FF16
(1522126612.531812) can0 115#137601AD019D
(1522126612.532029) can0 116#FE44FF16
(1522126612.541406) can0 506#41404C70493FAB7D
(1522126612.541619) can0 516#506ECA820078
(1522126612.541883) can0 514#49484900FFB605
(1522126612.542115) can0 115#136D01AC019A
(1522126612.542336) can0 116#FE46FF16
(1522126612.542670) can0 117#2005010001010001
(1522126612.542813) can0 118#0000
(1522126612.543106) can0 119#0C54FBE85B
(1522126612.543412) can0 120#08FC25B2028A0DAC
(1522126612.543605) can0 121#09F60FC0
(1522126612.543833) can0 122#FAFA00
(1522126612.544059) can0 123#3A98
(1522126612.544416) can0 124#0682838485868720
(1522126612.544676) can0 510#02FF02FF05060506
(1522126612.547106) can0 125#000000
(1522126612.551933) can0 115#135A01AB0198
(1522126612.552160) can0 116#FE49FF16
(1522126612.562000) can0 115#134801A90196
(1522126612.562215) can0 116#FE48FF16
(1522126612.572067) can0 115#133A01A80196
(1522126612.572291) can0 116#FE4BFF16
(1522126612.582127) can0 115#133001A70196
(1522126612.582345) can0 116#FE4BFF16
(1522126612.592190) can0 115#132301A60194
(1522126612.592418) can0 116#FE4AFF16
(1522126612.602265) can0 115#130E01A40191
(1522126612.602479) can0 116#FE4BFF22
(1522126612.612330) can0 115#12FF01A30193
(1522126612.612547) can0 116#FE4AFF22
(1522126612.622389) can0 115#12F401A20190
(1522126612.622604) can0 116#FE49FF22
(1522126612.632454) can0 115#12E601A10190
(1522126612.632679) can0 116#FE46FF22
(1522126612.642522) can0 115#12D7019F018D
(1522126612.642737) can0 116#FE44FF22
(1522126612.643071) can0 117#2005010001010001
(1522126612.643208) can0 118#0000
(1522126612.643508) can0 119#0C50FC035B
(1522126612.644239) can0 122#FAFA00
(1522126612.644821) can0 124#8482838485000005
(1522126612.647760) can0 125#000000
(1522126612.652585) can0 115#12CC019E0190
(1522126612.652806) can0 116#FE42FF22
(1522126612.662650) can0 115#12C3019E018D
(1522126612.662868) can0 116#FE41FF22
(1522126612.672713) can0 115#12BD019D0190
(1522126612.672942) can0 116#FE40FF22
(1522126612.682778) can0 115#12B9019D018D
(1522126612.682999) can0 116#FE3DFF22
(1522126612.692844) can0 115#12AB019C018B
(1522126612.693069) can0 116#FE3EFF22
(1522126612.702924) can0 115#12A0019B018C
(1522126612.703131) can0 116#FE3EFF1E
(1522126612.712972) can0 115#1299019A018A
(1522126612.713197) can0 116#FE3CFF1E
(1522126612.723038) can0 115#12930199018C
(1522126612.723257) can0 116#FE3DFF1E
(1522126612.733104) can0 115#128F0199018A
(1522126612.733329) can0 116#FE3BFF1E
(1522126612.743174) can0 115#128601980188
(1522126612.743384) can0 116#FE3CFF1E
(1522126612.743718) can0 117#2005010001010001
(1522126612.743860) can0 118#0000
(1522126612.744157) can0 119#0C50FC055C
(1522126612.744887) can0 122#FAFA00
(1522126612.745466) can0 124#0682838485868720
(1522126612.748408) can0 125#000000
(1522126612.753233) can0 115#127A01970186
(1522126612.753459) can0 116#FE3CFF1E
(1522126612.763302) can0 115#127201970188
(1522126612.763520) can0 116#FE3BFF1E
(1522126612.773402) can0 115#126C01960186
(1522126612.773593) can0 116#FE3AFF1E
(1522126612.783438) can0 115#126101950185
(1522126612.783649) can0 116#FE3BFF1E
(1522126612.793494) can0 115#126001950188
(1522126612.793716) can0 116#FE39FF1E
(1522126612.803573) can0 115#125901940185
(1522126612.803778) can0 116#FE3CFF22
(1522126612.813628) can0 115#124E01940185
(1522126612.813853) can0 116#FE39FF22
(1522126612.823694) can0 115#124601930183
(1522126612.823916) can0 116#FE3AFF22
(1522126612.833763) can0 115#123B01920181
(1522126612.833982) can0 116#FE39FF22
(1522126612.843831) can0 115#123301910181
(1522126612.844044) can0 116#FE39FF22
(1522126612.844377) can0 117#0005010001010001
(1522126612.844526) can0 118#0000
(1522126612.844813) can0 119#0C50FC0F5B
(1522126612.845547) can0 122#FAFA00
(1522126612.846130) can0 124#8482838485000005
(1522126612.849068) can0 125#000000
(1522126612.853893) can0 115#122D01910181
(1522126612.854114) can0 116#FE39FF22
(1522126612.863964) can0 115#122801900181
(1522126612.864170) can0 116#FE39FF22
(1522126612.874023) can0 115#122501900181
(1522126612.874246) can0 116#FE38FF22
(1522126612.884091) can0 115#121B018F0181
(1522126612.884306) can0 116#FE38FF22
(1522126612.894154) can0 115#1216018F017F
(1522126612.894375) can0 116#FE38FF22
(1522126612.904227) can0 115#1212018E0181
(1522126612.904437) can0 116#FE37FF22
(1522126612.914286) can0 115#120A018E017E
(1522126612.914509) can0 116#FE39FF22
(1522126612.924355) can0 115#1204018D017E
(1522126612.924572) can0 116#FE38FF22
(1522126612.934421) can0 115#1205018D0181
(1522126612.934643) can0 116#FE39FF22
(1522126612.944491) can0 115#1200018D017E
(1522126612.944700) can0 116#FE3AFF22
(1522126612.945033) can0 117#0005010001000001
(1522126612.945176) can0 118#0000
(1522126612.945468) can0 119#0C50FC1B5C
(1522126612.946202) can0 122#FAFA00
(1522126612.946780) can0 124#0682838485868700
(1522126612.949726) can0 125#000000
(1522126612.954553) can0 115#11F7018C017E
(1522126612.954777) can0 116#FE3AFF22
(1522126612.964622) can0 115#11F0018B017C
(1522126612.964837) can0 116#FE3AFF22
(1522126612.974680) can0 115#11E6018B017B
(1522126612.974910) can0 116#FE3BFF22
(1522126612.984747) can0 115#11DE018A017B
(1522126612.984963) can0 116#FE3DFF22
(1522126612.994811) can0 115#11D301890178
(1522126612.995038) can0 116#FE3CFF2A
(1522126613.004888) can0 115#11C501880177
(1522126613.005098) can0 116#FE3CFF2A
(1522126613.014945) can0 115#11BB01870177
(1522126613.015166) can0 116#FE3CFF2A
(1522126613.025009) can0 115#11B401860177
(1522126613.025221) can0 116#FE3AFF2A
(1522126613.035070) can0 115#11AF01860177
(1522126613.035301) can0 116#FE3BFF2A
(1522126613.045137) can0 115#11A501850174
(1522126613.045356) can0 116#FE3AFF2A
(1522126613.045693) can0 117#0005010001000001
(1522126613.045829) can0 118#0000
(1522126613.046124) can0 119#0C50FC2E5C
(1522126613.046860) can0 122#FAFA00
(1522126613.047441) can0 124#8482838485000005
(1522126613.050385) can0 125#000000
(1522126613.055204) can0 115#119E01840177
(1522126613.055438) can0 116#FE39FF2A
(1522126613.065269) can0 115#119901840174
(1522126613.065485) can0 116#FE39FF2A
(1522126613.075338) can0 115#119001830174
(1522126613.075558) can0 116#FE38FF2A
(1522126613.085399) can0 115#118901830174
(1522126613.085618) can0 116#FE37FF2A
(1522126613.095465) can0 115#117F01820172
(1522126613.095691) can0 116#FE38FF2C
(1522126613.105534) can0 115#117701810174
(1522126613.105739) can0 116#FE38FF2C
(1522126613.115591) can0 115#117101800172
(1522126613.115811) can0 116#FE38FF2C
(1522126613.125652) can0 115#116D01800174
(1522126613.125871) can0 116#FE37FF2C
(1522126613.135717) can0 115#116A01800172
(1522126613.135942) can0 116#FE37FF2C
(1522126613.145782) can0 115#1162017F0171
(1522126613.145998) can0 116#FE37FF2C
(1522126613.146329) can0 117#0005010001000001
(1522126613.146473) can0 118#0000
(1522126613.146763) can0 119#0C50FC375C
(1522126613.147498) can0 122#FAFA00
(1522126613.148076) can0 124#0682838485868700
(1522126613.151023) can0 125#000000
(1522126613.155845) can0 115#115D017F0171
(1522126613.156070) can0 116#FE36FF2C
(1522126613.165914) can0 115#1153017E016E
(1522126613.166128) can0 116#FE36FF2C
(1522126613.175978) can0 115#114C017D0171
(1522126613.176199) can0 116#FE35FF2C
(1522126613.186040) can0 115#114C017D0171
(1522126613.186253) can0 116#FE35FF2C
(1522126613.196103) can0 115#114D017D0171
(1522126613.196331) can0 116#FE35FF2A
(1522126613.206178) can0 115#1147017D016E
(1522126613.206390) can0 116#FE35FF2A
(1522126613.216239) can0 115#113E017C016D
(1522126613.216458) can0 116#FE35FF2A
(1522126613.226303) can0 115#113C017C016F
(1522126613.226512) can0 116#FE35FF2A
(1522126613.236362) can0 115#113C017C016D
(1522126613.236587) can0 116#FE35FF2A
(1522126613.246425) can0 115#1135017B016D
(1522126613.246646) can0 116#FE35FF2A
(1522126613.246978) can0 117#0005010001000001
(1522126613.247126) can0 118#0000
(1522126613.247409) can0 119#0C50FC3C5C
(1522126613.248147) can0 122#FAFA00
(1522126613.248728) can0 124#8482838485000005
(1522126613.251667) can0 125#000000
(1522126613.256488) can0 115#1131017B016D
(1522126613.256714) can0 116#FE35FF2A
(1522126613.266557) can0 115#1128017A016A
(1522126613.266771) can0 116#FE35FF2A
(1522126613.276620) can0 115#1121017A016D
(1522126613.276842) can0 116#FE36FF2A
(1522126613.286682) can0 115#111C0179016A
(1522126613.286904) can0 116#FE35FF2A
(1522126613.296752) can0 115#11130178016A
(1522126613.296972) can0 116#FE36FF2E
(1522126613.306822) can0 115#110D0178016A
(1522126613.307027) can0 116#FE36FF2E
(1522126613.316877) can0 115#11080177016A
(1522126613.317100) can0 116#FE36FF2E
(1522126613.326941) can0 115#10FF01770167
(1522126613.327158) can0 116#FE36FF2E
(1522126613.337008) can0 115#10F80176016A
(1522126613.337230) can0 116#FE36FF2E
(1522126613.347070) can0 115#10F301760167
(1522126613.347285) can0 116#FE36FF2E
(1522126613.347620) can0 117#0005010001000001
(1522126613.347762) can0 118#0000
(1522126613.348052) can0 119#0C50FC4D5C
(1522126613.348789) can0 122#FAFA00
(1522126613.349366) can0 124#0682838485868700
(1522126613.352312) can0 125#000000
(1522126613.357136) can0 115#10EA01750166
(1522126613.357362) can0 116#FE35FF2E
(1522126613.367200) can0 115#10DE01740163
(1522126613.367421) can0 116#FE35FF2E
(1522126613.377265) can0 115#10D501730166
(1522126613.377490) can0 116#FE35FF2E
(1522126613.387330) can0 115#10CE01720163
(1522126613.387544) can0 116#FE35FF2E
(1522126613.397391) can0 115#10C401720163
(1522126613.397618) can0 116#FE35FF32
(1522126613.407466) can0 115#10BC01710163
(1522126613.407678) can0 116#FE35FF32
(1522126613.417523) can0 115#10BC01710165
(1522126613.417747) can0 116#FE35FF32
(1522126613.427586) can0 115#10BC01710163
(1522126613.427801) can0 116#FE34FF32
(1522126613.437653) can0 115#10B101700160
(1522126613.437876) can0 116#FE35FF32
(1522126613.447718) can0 115#10A9016F0163
(1522126613.447935) can0 116#FE34FF32
(1522126613.448270) can0 117#0005010001000001
(1522126613.448407) can0 118#0000
(1522126613.448701) can0 119#0C50FC595C
(1522126613.449438) can0 122#FAFA00
(1522126613.450026) can0 124#8482838485000005
(1522126613.452959) can0 125#000000
(1522126613.457783) can0 115#10A9016F0163
(1522126613.458009) can0 116#FE33FF32
(1522126613.467850) can0 115#10A3016F0160
(1522126613.468061) can0 116#FE34FF32
(1522126613.477912) can0 115#1099016E015F
(1522126613.478136) can0 116#FE34FF32
(1522126613.487979) can0 115#1092016D015F
(1522126613.488200) can0 116#FE33FF32
(1522126613.498041) can0 115#1092016D0162
(1522126613.498269) can0 116#FE33FF32
(1522126613.508114) can0 115#108D016D015F
(1522126613.508322) can0 116#FE34FF32
(1522126613.518179) can0 115#1083016C015F
(1522126613.518398) can0 116#FE34FF32
(1522126613.528242) can0 115#1082016C015F
(1522126613.528457) can0 116#FE34FF32
(1522126613.538308) can0 115#1081016C015F
(1522126613.538527) can0 116#FE36FF32
(1522126613.547906) can0 506#41404C70453FA87D
(1522126613.548117) can0 516#506ECA820078
(1522126613.548381) can0 514#45454500FFB605
(1522126613.548619) can0 115#107B016B015D
(1522126613.548837) can0 116#FE3CFF32
(1522126613.549169) can0 117#0005010001000001
(1522126613.549312) can0 118#0000
(1522126613.549634) can0 119#0C50FC735C
(1522126613.549918) can0 120#08FC25B2028A0DAC
(1522126613.550108) can0 121#09F60FC0
(1522126613.550335) can0 122#FAFA00
(1522126613.550563) can0 123#3A98
(1522126613.550920) can0 124#0682838485868700
(1522126613.551173) can0 510#0516051605140514
(1522126613.553609) can0 125#070000
(1522126613.558435) can0 115#1071016A015B
(1522126613.558659) can0 116#FE43FF32
(1522126613.568505) can0 115#106F016A015E
(1522126613.568720) can0 116#FE4DFF32
(1522126613.578566) can0 115#106D016A015B
(1522126613.578792) can0 116#FE55FF32
(1522126613.588634) can0 115#1067016A015B
(1522126613.588845) can0 116#FE58FF32
(1522126613.598698) can0 115#1068016A015E
(1522126613.598922) can0 116#FE64FF46
(1522126613.608770) can0 115#10630169015B
(1522126613.608983) can0 116#FE70FF46
(1522126613.618829) can0 115#10590168015B
(1522126613.619050) can0 116#FE77FF46
(1522126613.628895) can0 115#10580168015B
(1522126613.629104) can0 116#FE97FF46
(1522126613.638955) can0 115#10570168015B
(1522126613.639181) can0 116#FEA7FF46
(1522126613.649022) can0 115#10570168015B
(1522126613.649236) can0 116#FEACFF46
(1522126613.649571) can0 117#0004000000000001
(1522126613.649718) can0 118#0000
(1522126613.650006) can0 119#0C4CFD5A5C
(1522126613.650740) can0 122#FAFA00
(1522126613.651325) can0 124#8482838485000004
(1522126613.654251) can0 125#262326
(1522126613.659086) can0 115#10560168015B
(1522126613.659307) can0 116#FEC2FF46
(1522126613.669154) can0 115#10560168015B
(1522126613.669364) can0 116#FEC8FF46
(1522126613.679216) can0 115#105601680159
(1522126613.679440) can0 116#FEE7FF46
(1522126613.689284) can0 115#10500168015B
(1522126613.689497) can0 116#FEF4FF46
(1522126613.699343) can0 115#104C0167015B
(1522126613.699573) can0 116#FEFFFF92
(1522126613.709413) can0 115#104E0167015B
(1522126613.709642) can0 116#FF0AFF92
(1522126613.719475) can0 115#104B01670159
(1522126613.719698) can0 116#FF37FF92
(1522126613.729538) can0 115#10480167015B
(1522126613.729756) can0 116#FF26FF92
(1522126613.739636) can0 115#104601670159
(1522126613.739824) can0 116#FF42FF92
(1522126613.749695) can0 115#103F01660158
(1522126613.749891) can0 116#FF3FFF92
(1522126613.750220) can0 117#0004000000000001
(1522126613.750368) can0 118#0000
(1522126613.750653) can0 119#0C38FE815C
(1522126613.751388) can0 122#FAFA00
(1522126613.751967) can0 124#0682838485868700
(1522126613.754900) can0 125#262326
(1522126613.759735) can0 115#103F0166015B
(1522126613.759961) can0 116#FF66FF92
(1522126613.769807) can0 115#104001660158
(1522126613.770020) can0 116#FF7FFF92
(1522126613.779868) can0 115#103A01660158
(1522126613.780083) can0 116#FF69FF92
(1522126613.789927) can0 115#103C0166015B
(1522126613.790149) can0 116#FF71FF92
(1522126613.800000) can0 115#103D01660158
(1522126613.800221) can0 116#FF90FFD0
(1522126613.810073) can0 115#103901660158
(1522126613.810282) can0 116#FFA1FFD0
(1522126613.820131) can0 115#103501650158
(1522126613.820346) can0 116#FFB7FFD0
(1522126613.830186) can0 115#102D01650156
(1522126613.830411) can0 116#FFC6FFD0
(1522126613.840252) can0 115#102701640158
(1522126613.840477) can0 116#FFA2FFD0
(1522126613.850325) can0 115#102801640158
(1522126613.850540) can0 116#FFC2FFD0
(1522126613.850868) can0 117#0004000000000001
(1522126613.851016) can0 118#0000
(1522126613.851302) can0 119#0C24FF855C
(1522126613.852036) can0 122#FAFA00
(1522126613.852623) can0 124#8482838485000004
(1522126613.855546) can0 125#252326
(1522126613.860385) can0 115#102901640158
(1522126613.860606) can0 116#FFD4FFD0
(1522126613.870448) can0 115#102A01640158
(1522126613.870670) can0 116#FFCBFFD0
(1522126613.880511) can0 115#102B01640158
(1522126613.880742) can0 116#FFC1FFD0
(1522126613.890581) can0 115#102B01640158
(1522126613.890801) can0 116#FFC0FFD0
(1522126613.900642) can0 115#102B01640158
(1522126613.900866) can0 116#FFE4FFF4
(1522126613.910716) can0 115#102601640156
(1522126613.910934) can0 116#FFF4FFF4
(1522126613.920774) can0 115#102201640158
(1522126613.920998) can0 116#FFFAFFF4
(1522126613.930842) can0 115#101F01630156
(1522126613.931057) can0 116#FFD9FFF4
(1522126613.940904) can0 115#101D01630158
(1522126613.941126) can0 116#FFD5FFF4
(1522126613.950965) can0 115#101B01630156
(1522126613.951190) can0 116#FFEDFFF4
(1522126613.951518) can0 117#0004000000000001
(1522126613.951666) can0 118#0000
(1522126613.951955) can0 119#0C18FFDB5C
(1522126613.952686) can0 122#FAFA00
(1522126613.953265) can0 124#0682838485868700
(1522126613.956196) can0 125#1D2326
(1522126613.961033) can0 115#101401620154
(1522126613.961262) can0 116#0001FFF4
(1522126613.971100) can0 115#101501620157
(1522126613.971323) can0 116#FFDCFFF4
(1522126613.981162) can0 115#101601630154
(1522126613.981385) can0 116#FFEFFFF4
(1522126613.991224) can0 115#101601630157
(1522126613.991447) can0 116#FFF9FFF4
(1522126614.001289) can0 115#101601630154
(1522126614.001516) can0 116#FFE9FFF6
(1522126614.011366) can0 115#101101620154
(1522126614.011576) can0 116#FFF3FFF6
(1522126614.021420) can0 115#100D01620154
(1522126614.021644) can0 116#FFEEFFF6
(1522126614.031482) can0 115#100A01620154
(1522126614.031706) can0 116#FFF3FFF6
(1522126614.041551) can0 115#100801610154
(1522126614.041778) can0 116#FFEBFFF6
(1522126614.051620) can0 115#100101610152
(1522126614.051835) can0 116#FFEAFFF6
(1522126614.052166) can0 117#0004000000000001
(1522126614.052314) can0 118#0000
(1522126614.052604) can0 119#0C10FFD55C
(1522126614.053334) can0 122#FAFA00
(1522126614.053921) can0 124#8482838485000004
(1522126614.056846) can0 125#192326
(1522126614.061694) can0 115#0FFC01600154
(1522126614.061899) can0 116#FFE9FFF6
(1522126614.071747) can0 115#0FFE01600154
(1522126614.071964) can0 116#FFE3FFF6
(1522126614.081816) can0 115#0FF901600152
(1522126614.082034) can0 116#FFDDFFF6
(1522126614.091879) can0 115#0FF601600154
(1522126614.092094) can0 116#FFD7FFF6
(1522126614.101944) can0 115#0FF401600152
(1522126614.102162) can0 116#FFD2FFEC
(1522126614.112015) can0 115#0FF2015F0154
(1522126614.112226) can0 116#FFCBFFEC
(1522126614.122072) can0 115#0FF1015F0152
(1522126614.122295) can0 116#FFC5FFEC
(1522126614.132141) can0 115#0FF0015F0154
(1522126614.132357) can0 116#FFC2FFEC
(1522126614.142206) can0 115#0FEF015F0152
(1522126614.142420) can0 116#FFBEFFEC
(1522126614.152266) can0 115#0FEF015F0154
(1522126614.152484) can0 116#FFBBFFEC
(1522126614.152815) can0 117#0004000000000001
(1522126614.152962) can0 118#0000
(1522126614.153250) can0 119#0C14FF785C
(1522126614.153984) can0 122#FAFA00
(1522126614.154562) can0 124#0682838485868700
(1522126614.157496) can0 125#192326
(1522126614.162333) can0 115#0FF401600154
(1522126614.162554) can0 116#FFB9FFEC
(1522126614.172408) can0 115#0FF801600154
(1522126614.172616) can0 116#FFB6FFEC
(1522126614.182466) can0 115#0FFB01600154
(1522126614.182680) can0 116#FFB4FFEC
(1522126614.192532) can0 115#0FF701600152
(1522126614.192749) can0 116#FFB2FFEC
(1522126614.202597) can0 115#0FF501600154
(1522126614.202819) can0 116#FFB2FFDE
(1522126614.212672) can0 115#0FF301600152
(1522126614.212878) can0 116#FFB2FFDE
(1522126614.222730) can0 115#0FF2015F0154
(1522126614.222949) can0 116#FFB3FFDE
(1522126614.232792) can0 115#0FF0015F0152
(1522126614.233006) can0 116#FFB5FFDE
(1522126614.242859) can0 115#0FF0015F0154
(1522126614.243081) can0 116#FFAFFFDE
(1522126614.252925) can0 115#0FEF015F0152
(1522126614.253139) can0 116#FFB0FFDE
(1522126614.253469) can0 117#0004000000000001
(1522126614.253615) can0 118#0000
(1522126614.253903) can0 119#0C18FF625C
(1522126614.254638) can0 122#FAFA00
(1522126614.255223) can0 124#8482838485000004
(1522126614.258151) can0 125#182326
(1522126614.262987) can0 115#0FE9015F0151
(1522126614.263205) can0 116#FFAFFFDE
(1522126614.273093) can0 115#0FE5015E0151
(1522126614.273266) can0 116#FFAEFFDE
(1522126614.283112) can0 115#0FE2015E0151
(1522126614.283332) can0 116#FFABFFDE
(1522126614.293173) can0 115#0FDF015E0151
(1522126614.293389) can0 116#FFA8FFDE
(1522126614.303237) can0 115#0FE3015E0154
(1522126614.303463) can0 116#FFA7FFD8
(1522126614.313325) can0 115#0FE6015E0151
(1522126614.313525) can0 116#FFA6FFD8
(1522126614.323375) can0 115#0FE3015E0151
(1522126614.323596) can0 116#FFA7FFD8
(1522126614.333444) can0 115#0FDA015D014F
(1522126614.333653) can0 116#FFA8FFD8
(1522126614.343501) can0 115#0FD4015D0151
(1522126614.343722) can0 116#FFA7FFD8
(1522126614.353566) can0 115#0FD6015D0151
(1522126614.353787) can0 116#FFA5FFD8
(1522126614.354114) can0 117#0004000000000001
(1522126614.354262) can0 118#0000
(1522126614.354551) can0 119#0C1CFF4D5C
(1522126614.355284) can0 122#FAFA00
(1522126614.355861) can0 124#0682838485868700
(1522126614.358795) can0 125#192326
(1522126614.363629) can0 115#0FD7015D0151
(1522126614.363852) can0 116#FFA3FFD8
(1522126614.373696) can0 115#0FD7015D0151
(1522126614.373915) can0 116#FFA4FFD8
(1522126614.383759) can0 115#0FD2015D014F
(1522126614.383976) can0 116#FFA3FFD8
(1522126614.393823) can0 115#0FCE015C0151
(1522126614.394040) can0 116#FFA1FFD8
(1522126614.403890) can0 115#0FCC015C014F
(1522126614.404111) can0 116#FFA1FFD6
(1522126614.413960) can0 115#0FCA015C0151
(1522126614.414169) can0 116#FF9EFFD6
(1522126614.424020) can0 115#0FCE015C0151
(1522126614.424239) can0 116#FFA0FFD6
(1522126614.434084) can0 115#0FC9015C014F
(1522126614.434299) can0 116#FF9CFFD6
(1522126614.444152) can0 115#0FC8015C0151
(1522126614.444371) can0 116#FF9EFFD6
(1522126614.454218) can0 115#0FC1015B014F
(1522126614.454435) can0 116#FFA0FFD6
(1522126614.454764) can0 117#0004000000000001
(1522126614.454911) can0 118#0000
(1522126614.455199) can0 119#0C1CFF445C
(1522126614.455933) can0 122#FAFA00
(1522126614.456518) can0 124#8482838485000004
(1522126614.459442) can0 125#172326
(1522126614.464280) can0 115#0FBD015B014E
(1522126614.464498) can0 116#FF9EFFD6
(1522126614.474345) can0 115#0FB9015B014E
(1522126614.474562) can0 116#FF9AFFD6
(1522126614.484409) can0 115#0FBC015B0151
(1522126614.484631) can0 116#FF96FFD6
(1522126614.494476) can0 115#0FBE015B014E
(1522126614.494693) can0 116#FF95FFD2
(1522126614.504541) can0 115#0FBA015B014E
(1522126614.504761) can0 116#FF95FFD2
(1522126614.514614) can0 115#0FB7015A014E
(1522126614.514825) can0 116#FF94FFD2
(1522126614.524674) can0 115#0FB5015A014E
(1522126614.524896) can0 116#FF91FFD2
(1522126614.534741) can0 115#0FB4015A014E
(1522126614.534958) can0 116#FF8CFFD2
(1522126614.544809) can0 115#0FB8015A0151
(1522126614.545025) can0 116#FF8BFFD2
(1522126614.554403) can0 506#41404D70453FA87D
(1522126614.554622) can0 516#506ECA820078
(1522126614.554889) can0 514#45444400FFB605
(1522126614.555121) can0 115#0FBC015B014E
(1522126614.555343) can0 116#FF8CFFD2
(1522126614.555671) can0 117#0004000000000001
(1522126614.555819) can0 118#0000
(1522126614.556106) can0 119#0C1CFF1E5C
(1522126614.556415) can0 120#08FC25B2028A0DAC
(1522126614.556609) can0 121#09F60FC0
(1522126614.556836) can0 122#FAFA00
(1522126614.557064) can0 123#3A98
(1522126614.557420) can0 124#0682838485868700
(1522126614.557675) can0 510#0115011501160116
(1522126614.560101) can0 125#172326
(1522126614.564938) can0 115#0FB8015A014E
(1522126614.565162) can0 116#FF8DFFD2
(1522126614.575006) can0 115#0FB6015A014E
(1522126614.575223) can0 116#FF8CFFD2
(1522126614.585071) can0 115#0FB4015A014E
(1522126614.585287) can0 116#FF8EFFD2
(1522126614.595136) can0 115#0FAD015A014C
(1522126614.595355) can0 116#FF8DFFD0
(1522126614.605205) can0 115#0FA80159014E
(1522126614.605426) can0 116#FF90FFD0
(1522126614.615275) can0 115#0FAA0159014E
(1522126614.615487) can0 116#FF8CFFD0
(1522126614.625333) can0 115#0FAC0159014E
(1522126614.625550) can0 116#FF8BFFD0
(1522126614.635399) can0 115#0FA70159014C
(1522126614.635616) can0 116#FF8BFFD0
(1522126614.645462) can0 115#0FA40159014E
(1522126614.645692) can0 116#FF8BFFD0
(1522126614.655532) can0 115#0FA10158014C
(1522126614.655747) can0 116#FF8CFFD0
(1522126614.656078) can0 117#0004000000000001
(1522126614.656215) can0 118#0000
(1522126614.656515) can0 119#0C20FF205C
(1522126614.657247) can0 122#FAFA00
(1522126614.657833) can0 124#8482838485000004
(1522126614.660758) can0 125#17191B
(1522126614.665592) can0 115#0F9A0158014A
(1522126614.665815) can0 116#FF8CFFD0
(1522126614.675661) can0 115#0F9A0158014D
(1522126614.675878) can0 116#FF8BFFD0
(1522126614.685731) can0 115#0F9A0158014A
(1522126614.685950) can0 116#FF8CFFD0
(1522126614.695791) can0 115#0F950157014A
(1522126614.696010) can0 116#FF8CFFCE
(1522126614.705855) can0 115#0F910157014A
(1522126614.706078) can0 116#FF8CFFCE
(1522126614.715930) can0 115#0F8E0157014A
(1522126614.716142) can0 116#FF8BFFCE
(1522126614.725995) can0 115#0F8C0157014A
(1522126614.726212) can0 116#FF8AFFCE
(1522126614.736056) can0 115#0F8A0156014A
(1522126614.736271) can0 116#FF8AFFCE
(1522126614.746122) can0 115#0F8401560148
(1522126614.746340) can0 116#FF8AFFCE
(1522126614.756186) can0 115#0F7F0156014A
(1522126614.756413) can0 116#FF89FFCE
(1522126614.756735) can0 117#0004000000000001
(1522126614.756874) can0 118#0000
(1522126614.757170) can0 119#0C20FF1C5C
(1522126614.757904) can0 122#FAFA00
(1522126614.758481) can0 124#0682838485868700
(1522126614.761415) can0 125#17191B
(1522126614.766251) can0 115#0F810156014A
(1522126614.766477) can0 116#FF87FFCE
(1522126614.776321) can0 115#0F7D01550148
(1522126614.776534) can0 116#FF86FFCE
(1522126614.786383) can0 115#0F7A0155014A
(1522126614.786598) can0 116#FF86FFCE
(1522126614.796449) can0 115#0F7D0155014A
(1522126614.796662) can0 116#FF85FFCC
(1522126614.806534) can0 115#0F7A01550148
(1522126614.806734) can0 116#FF84FFCC
(1522126614.816579) can0 115#0F780155014A
(1522126614.816797) can0 116#FF83FFCC
(1522126614.826636) can0 115#0F7601550148
(1522126614.826862) can0 116#FF83FFCC
(1522126614.836705) can0 115#0F750155014A
(1522126614.836925) can0 116#FF82FFCC
(1522126614.846772) can0 115#0F7401550148
(1522126614.846995) can0 116#FF82FFCC
(1522126614.856839) can0 115#0F6E01540147
(1522126614.857055) can0 116#FF84FFCC
(1522126614.857385) can0 117#0004000000000001
(1522126614.857522) can0 118#0000
(1522126614.857822) can0 119#0C20FF135C
(1522126614.858554) can0 122#FAFA00
(1522126614.859140) can0 124#8482838485000004
(1522126614.862065) can0 125#17191B
(1522126614.866895) can0 115#0F6F0154014A
(1522126614.867124) can0 116#FF83FFCC
(1522126614.876966) can0 115#0F7001540147
(1522126614.877186) can0 116#FF84FFCC
(1522126614.887033) can0 115#0F6A01540147
(1522126614.887255) can0 116#FF84FFCC
(1522126614.897096) can0 115#0F6701530147
(1522126614.897315) can0 116#FF84FFCC
(1522126614.907161) can0 115#0F6401530147
(1522126614.907382) can0 116#FF84FFCC
(1522126614.917234) can0 115#0F6201530147
(1522126614.917449) can0 116#FF83FFCC
(1522126614.927295) can0 115#0F5B01520145
(1522126614.927518) can0 116#FF83FFCC
(1522126614.937359) can0 115#0F5601520147
(1522126614.937577) can0 116#FF83FFCC
(1522126614.947424) can0 115#0F5801520147
(1522126614.947645) can0 116#FF83FFCC
(1522126614.957487) can0 115#0F5401520145
(1522126614.957708) can0 116#FF82FFCC
(1522126614.958038) can0 117#0004000000000001
(1522126614.958176) can0 118#0000
(1522126614.958475) can0 119#0C20FF115C
(1522126614.959206) can0 122#FAFA00
(1522126614.959787) can0 124#0682838485868700
(1522126614.962716) can0 125#17191B
(1522126614.967558) can0 115#0F5001510147
(1522126614.967778) can0 116#FF82FFCC
(1522126614.977619) can0 115#0F5401520147
(1522126614.977840) can0 116#FF81FFCC
(1522126614.987687) can0 115#0F5101520145
(1522126614.987904) can0 116#FF82FFCC
(1522126614.997750) can0 115#0F4E01510147
(1522126614.997969) can0 116#FF81FFCA
(1522126615.007817) can0 115#0F5201520147
(1522126615.008040) can0 116#FF81FFCA
(1522126615.017890) can0 115#0F5001510145
(1522126615.018100) can0 116#FF81FFCA
(1522126615.027948) can0 115#0F4E01510147
(1522126615.028166) can0 116#FF81FFCA
(1522126615.038014) can0 115#0F5201520147
(1522126615.038234) can0 116#FF80FFCA
(1522126615.048081) can0 115#0F4F01510145
(1522126615.048304) can0 116#FF81FFCA
(1522126615.058148) can0 115#0F4801510144
(1522126615.058365) can0 116#FF81FFCA
(1522126615.058695) can0 117#0004000000000001
(1522126615.058833) can0 118#0000
(1522126615.059132) can0 119#0C20FF105C
(1522126615.059866) can0 122#FAFA00
(1522126615.060446) can0 124#8482838485000004
(1522126615.063372) can0 125#16191B
(1522126615.068210) can0 115#0F4801510146
(1522126615.068434) can0 116#FF81FFCA
(1522126615.078280) can0 115#0F4801510144
(1522126615.078498) can0 116#FF81FFCA
(1522126615.088352) can0 115#0F4201500144
(1522126615.088569) can0 116#FF82FFCA
(1522126615.098419) can0 115#0F3E01500144
(1522126615.098634) can0 116#FF81FFCC
(1522126615.108483) can0 115#0F4101500146
(1522126615.108700) can0 116#FF81FFCC
(1522126615.118554) can0 115#0F3D01500144
(1522126615.118763) can0 116#FF82FFCC
(1522126615.128613) can0 115#0F35014F0144
(1522126615.128837) can0 116#FF81FFCC
(1522126615.138677) can0 115#0F35014F0144
(1522126615.138897) can0 116#FF81FFCC
(1522126615.148740) can0 115#0F34014F0144
(1522126615.148961) can0 116#FF81FFCC
(1522126615.158804) can0 115#0F34014F0144
(1522126615.159024) can0 116#FF81FFCC
(1522126615.159353) can0 117#0004000000000001
(1522126615.159492) can0 118#0000
(1522126615.159790) can0 119#0C20FF115C
(1522126615.160524) can0 122#FAFA00
(1522126615.161102) can0 124#0682838485868700
(1522126615.164033) can0 125#17191B
(1522126615.168874) can0 115#0F2E014F0141
(1522126615.169096) can0 116#FF81FFCC
(1522126615.178936) can0 115#0F2A014E0144
(1522126615.179156) can0 116#FF81FFCC
(1522126615.189004) can0 115#0F27014E0141
(1522126615.189220) can0 116#FF82FFCC
(1522126615.199070) can0 115#0F1F014D0140
(1522126615.199287) can0 116#FF81FFCC
(1522126615.209134) can0 115#0F1F014D0142
(1522126615.209356) can0 116#FF81FFCC
(1522126615.219210) can0 115#0F1F014D0140
(1522126615.219417) can0 116#FF81FFCC
(1522126615.229266) can0 115#0F19014D0140
(1522126615.229485) can0 116#FF80FFCC
(1522126615.239329) can0 115#0F1B014D0142
(1522126615.239549) can0 116#FF80FFCC
(1522126615.249396) can0 115#0F1C014D0140
(1522126615.249634) can0 116#FF80FFCC
(1522126615.259461) can0 115#0F17014D0140
(1522126615.259686) can0 116#FF80FFCC
(1522126615.260004) can0 117#0004000000000001
(1522126615.260148) can0 118#0000
(1522126615.260440) can0 119#0C24FF115C
(1522126615.261176) can0 122#FAFA00
(1522126615.261763) can0 124#8482838485000004
(1522126615.264685) can0 125#17191B
(1522126615.269523) can0 115#0F13014C0140
(1522126615.269751) can0 116#FF80FFCC
(1522126615.279590) can0 115#0F11014C0140
(1522126615.279811) can0 116#FF80FFCC
(1522126615.289668) can0 115#0F0F014C0140
(1522126615.289882) can0 116#FF80FFCC
(1522126615.299727) can0 115#0F0E014C0140
(1522126615.299936) can0 116#FF80FFCC
(1522126615.309789) can0 115#0F0D014C0140
(1522126615.310010) can0 116#FF7FFFCC
(1522126615.319866) can0 115#0F0C014C0140
(1522126615.320069) can0 116#FF7FFFCC
(1522126615.329924) can0 115#0F0B014C0140
(1522126615.330142) can0 116#FF80FFCC
(1522126615.339989) can0 115#0F0B014C0140
(1522126615.340196) can0 116#FF7FFFCC
(1522126615.350049) can0 115#0F0B014C0140
(1522126615.350270) can0 116#FF7FFFCC
(1522126615.360112) can0 115#0F05014B013D
(1522126615.360328) can0 116#FF7FFFCC
(1522126615.360657) can0 117#0004000000000001
(1522126615.360795) can0 118#0000
(1522126615.361097) can0 119#0C24FF105C
(1522126615.361828) can0 122#FAFA00
(1522126615.362406) can0 124#0682838485868700
(1522126615.365338) can0 125#15191B
(1522126615.370183) can0 115#0F01014B0140
(1522126615.370400) can0 116#FF7EFFCC
(1522126615.380243) can0 115#0EFE014A013D
(1522126615.380456) can0 116#FF7EFFCC
(1522126615.390305) can0 115#0EFB014A0140
(1522126615.390531) can0 116#FF7DFFCC
(1522126615.400369) can0 115#0EFA014A013D
(1522126615.400589) can0 116#FF7CFFCA
(1522126615.410432) can0 115#0EF30149013D
(1522126615.410655) can0 116#FF7AFFCA
(1522126615.420502) can0 115#0EEE0149013D
(1522126615.420710) can0 116#FF79FFCA
(1522126615.430558) can0 115#0EEA0149013D
(1522126615.430787) can0 116#FF78FFCA
(1522126615.440630) can0 115#0EE80149013D
(1522126615.440847) can0 116#FF77FFCA
(1522126615.450702) can0 115#0EEB0149013F
(1522126615.450917) can0 116#FF76FFCA
(1522126615.460758) can0 115#0EEE0149013D
(1522126615.460970) can0 116#FF75FFCA
(1522126615.461304) can0 117#0004000000000001
(1522126615.461447) can0 118#0000
(1522126615.461738) can0 119#0C24FEFF5C
(1522126615.462473) can0 122#FAFA00
(1522126615.463059) can0 124#8482838485000004
(1522126615.465986) can0 125#14191B
(1522126615.470822) can0 115#0EEA0149013D
(1522126615.471047) can0 116#FF74FFCA
(1522126615.480890) can0 115#0EE80149013D
(1522126615.481107) can0 116#FF72FFCA
(1522126615.490961) can0 115#0EE60148013D
(1522126615.491178) can0 116#FF71FFCA
(1522126615.501017) can0 115#0EE40148013D
(1522126615.501230) can0 116#FF6FFFC6
(1522126615.511081) can0 115#0EDE0148013A
(1522126615.511304) can0 116#FF6FFFC6
(1522126615.521150) can0 115#0ED90147013D
(1522126615.521364) can0 116#FF70FFC6
(1522126615.531209) can0 115#0EDB0147013D
(1522126615.531431) can0 116#FF6DFFC6
(1522126615.541270) can0 115#0EDD0148013D
(1522126615.541484) can0 116#FF6DFFC6
(1522126615.551335) can0 115#0EDE0148013D
(1522126615.551557) can0 116#FF6AFFC6
(1522126615.560930) can0 506#42404D70433FA77D
(1522126615.561149) can0 516#506ECA820078
(1522126615.561412) can0 514#43434300FFB605
(1522126615.561646) can0 115#0ED90147013A
(1522126615.561869) can0 116#FF6BFFC6
(1522126615.562200) can0 117#0004000000000001
(1522126615.562348) can0 118#0000
(1522126615.562633) can0 119#0C24FEEE5C
(1522126615.562944) can0 120#08FC25B2028A0DAC
(1522126615.563135) can0 121#09F60FC0
(1522126615.563362) can0 122#FAFA00
(1522126615.563590) can0 123#3A98
(1522126615.563946) can0 124#0682838485868700
(1522126615.564207) can0 510#0117011701180118
(1522126615.566629) can0 125#14191B
(1522126615.571469) can0 115#0ED001460139
(1522126615.571688) can0 116#FF6EFFC6
(1522126615.581528) can0 115#0ECF0146013C
(1522126615.581743) can0 116#FF6AFFC6
(1522126615.591590) can0 115#0ECE01460139
(1522126615.591817) can0 116#FF69FFC6
(1522126615.601660) can0 115#0ECD0146013C
(1522126615.601877) can0 116#FF67FFC2
(1522126615.611728) can0 115#0ECD01460139
(1522126615.611951) can0 116#FF64FFC2
(1522126615.621799) can0 115#0ECD0146013C
(1522126615.622009) can0 116#FF64FFC2
(1522126615.631856) can0 115#0EC701460139
(1522126615.632079) can0 116#FF67FFC2
(1522126615.641921) can0 115#0EC30145013C
(1522126615.642137) can0 116#FF67FFC2
(1522126615.651990) can0 115#0EC501460139
(1522126615.652212) can0 116#FF66FFC2
(1522126615.662054) can0 115#0EC101450139
(1522126615.662267) can0 116#FF68FFC2
(1522126615.662597) can0 117#0004000000000001
(1522126615.662742) can0 118#0000
(1522126615.663028) can0 119#0C24FEEA5C
(1522126615.663766) can0 122#FAFA00
(1522126615.664352) can0 124#8482838485000004
(1522126615.667279) can0 125#131618
(1522126615.672114) can0 115#0EB901440137
(1522126615.672340) can0 116#FF66FFC2
(1522126615.682183) can0 115#0EB301440139
(1522126615.682404) can0 116#FF65FFC2
(1522126615.692253) can0 115#0EB401440139
(1522126615.692470) can0 116#FF61FFC2
(1522126615.702315) can0 115#0EAF01440137
(1522126615.702530) can0 116#FF61FFC0
(1522126615.712375) can0 115#0EAC01430139
(1522126615.712605) can0 116#FF5FFFC0
(1522126615.722454) can0 115#0EA901430137
(1522126615.722663) can0 116#FF62FFC0
(1522126615.732507) can0 115#0EA701430139
(1522126615.732734) can0 116#FF5DFFC0
(1522126615.742575) can0 115#0EA601430137
(1522126615.742789) can0 116#FF5FFFC0
(1522126615.752636) can0 115#0EA001420136
(1522126615.752863) can0 116#FF5EFFC0
(1522126615.762700) can0 115#0E9B01420136
(1522126615.762922) can0 116#FF5DFFC0
(1522126615.763251) can0 117#0004000000000001
(1522126615.763390) can0 118#0000
(1522126615.763684) can0 119#0C24FED45C
(1522126615.764420) can0 122#FAFA00
(1522126615.764998) can0 124#0682838485868700
(1522126615.767938) can0 125#131618
(1522126615.772809) can0 115#0E9701420136
(1522126615.772992) can0 116#FF5AFFC0
(1522126615.782830) can0 115#0E9A01420138
(1522126615.783048) can0 116#FF58FFC0
(1522126615.792893) can0 115#0E9701420136
(1522126615.793121) can0 116#FF5CFFC0
(1522126615.802963) can0 115#0E9401410138
(1522126615.803180) can0 116#FF5FFFC0
(1522126615.813033) can0 115#0E9301410136
(1522126615.813257) can0 116#FF5FFFC0
(1522126615.823111) can0 115#0E8C01410136
(1522126615.823313) can0 116#FF5AFFC0
(1522126615.833161) can0 115#0E8C01410136
(1522126615.833384) can0 116#FF58FFC0
(1522126615.843226) can0 115#0E8D01410136
(1522126615.843447) can0 116#FF5AFFC0
(1522126615.853292) can0 115#0E8701400133
(1522126615.853519) can0 116#FF57FFC0
(1522126615.863363) can0 115#0E7E013F0133
(1522126615.863574) can0 116#FF59FFC0
(1522126615.863902) can0 117#0004000000000001
(1522126615.864045) can0 118#0000
(1522126615.864336) can0 119#0C28FED25C
(1522126615.865070) can0 122#FAFA00
(1522126615.865657) can0 124#8482838485000004
(1522126615.868585) can0 125#131618
(1522126615.873422) can0 115#0E7D013F0135
(1522126615.873648) can0 116#FF57FFC0
(1522126615.883493) can0 115#0E7C013F0133
(1522126615.883708) can0 116#FF56FFC0
(1522126615.893552) can0 115#0E75013F0133
(1522126615.893778) can0 116#FF57FFC0
(1522126615.903615) can0 115#0E76013F0135
(1522126615.903839) can0 116#FF55FFBC
(1522126615.913684) can0 115#0E77013F0133
(1522126615.913908) can0 116#FF54FFBC
(1522126615.923758) can0 115#0E6E013E0133
(1522126615.923966) can0 116#FF53FFBC
(1522126615.933813) can0 115#0E6C013E0133
(1522126615.934034) can0 116#FF51FFBC
(1522126615.943876) can0 115#0E6A013E0133
(1522126615.944089) can0 116#FF51FFBC
(1522126615.953941) can0 115#0E68013D0133
(1522126615.954164) can0 116#FF51FFBC
(1522126615.964004) can0 115#0E67013D0133
(1522126615.964221) can0 116#FF52FFBC
(1522126615.964563) can0 117#0004000000000001
(1522126615.964701) can0 118#0000
(1522126615.964990) can0 119#0C28FECB5C
(1522126615.965724) can0 122#FAFA00
(1522126615.966302) can0 124#0682838485868700
(1522126615.969238) can0 125#131618
(1522126615.974071) can0 115#0E66013D0133
(1522126615.974295) can0 116#FF50FFBC
(1522126615.984135) can0 115#0E66013D0133
(1522126615.984347) can0 116#FF51FFBC
(1522126615.994199) can0 115#0E66013D0133
(1522126615.994421) can0 116#FF51FFBC
(1522126616.004265) can0 115#0E60013D0130
(1522126616.004480) can0 116#FF51FFBC
(1522126616.014326) can0 115#0E5B013C0133
(1522126616.014552) can0 116#FF51FFBC
(1522126616.024399) can0 115#0E5E013D0133
(1522126616.024606) can0 116#FF51FFBC
(1522126616.034454) can0 115#0E5A013C0130
(1522126616.034681) can0 116#FF50FFBC
(1522126616.044519) can0 115#0E57013C0133
(1522126616.044738) can0 116#FF4FFFBC
(1522126616.054586) can0 115#0E55013C0130
(1522126616.054807) can0 116#FF4EFFBC
(1522126616.064650) can0 115#0E54013C0133
(1522126616.064862) can0 116#FF4EFFBC
(1522126616.065196) can0 117#0004000000000001
(1522126616.065340) can0 118#0000
(1522126616.065629) can0 119#0C28FEC55C
(1522126616.066364) can0 122#FAFA00
(1522126616.066951) can0 124#8482838485000004
(1522126616.069881) can0 125#121618
(1522126616.074714) can0 115#0E53013C0130
(1522126616.074937) can0 116#FF4EFFBC
(1522126616.084782) can0 115#0E4C013B012F
(1522126616.084999) can0 116#FF4DFFBC
(1522126616.094849) can0 115#0E48013B012F
(1522126616.095070) can0 116#FF4DFFBA
(1522126616.104913) can0 115#0E44013A012F
(1522126616.105123) can0 116#FF4EFFBA
(1522126616.114976) can0 115#0E42013A012F
(1522126616.115199) can0 116#FF50FFBA
(1522126616.125050) can0 115#0E3A013A012D
(1522126616.125258) can0 116#FF4EFFBA
(1522126616.135112) can0 115#0E350139012F
(1522126616.135326) can0 116#FF50FFBA
(1522126616.145172) can0 115#0E310139012D
(1522126616.145383) can0 116#FF50FFBA
(1522126616.155235) can0 115#0E2E0138012F
(1522126616.155459) can0 116#FF4DFFBA
(1522126616.165301) can0 115#0E260138012D
(1522126616.165518) can0 116#FF4BFFBA
(1522126616.165850) can0 117#0004000000000001
(1522126616.165987) can0 118#0000
(1522126616.166283) can0 119#0C28FEC45C
(1522126616.167019) can0 122#FAFA00
(1522126616.167597) can0 124#0682838485868700
(1522126616.170534) can0 125#111618
(1522126616.175361) can0 115#0E210137012F
(1522126616.175588) can0 116#FF49FFBA
(1522126616.185428) can0 115#0E220137012D
(1522126616.185640) can0 116#FF48FFBA
(1522126616.195491) can0 115#0E1E0137012C
(1522126616.195714) can0 116#FF46FFB8
(1522126616.205555) can0 115#0E1A0137012C
(1522126616.205777) can0 116#FF45FFB8
(1522126616.215622) can0 115#0E180137012C
(1522126616.215848) can0 116#FF45FFB8
(1522126616.225696) can0 115#0E160136012C
(1522126616.225901) can0 116#FF44FFB8
(1522126616.235749) can0 115#0E150136012C
(1522126616.235975) can0 116#FF41FFB8
(1522126616.245818) can0 115#0E0E01360129
(1522126616.246034) can0 116#FF41FFB8
(1522126616.255880) can0 115#0E0A0135012C
(1522126616.256102) can0 116#FF42FFB8
(1522126616.265947) can0 115#0E0601350129
(1522126616.266157) can0 116#FF42FFB8
(1522126616.266488) can0 117#0004000000000001
(1522126616.266631) can0 118#0000
(1522126616.266922) can0 119#0C28FEB75C
(1522126616.267658) can0 122#FAFA00
(1522126616.268245) can0 124#8482838485000004
(1522126616.271171) can0 125#111618
(1522126616.276006) can0 115#0E040135012C
(1522126616.276231) can0 116#FF42FFB8
(1522126616.286072) can0 115#0E0201350129
(1522126616.286291) can0 116#FF40FFB8
(1522126616.296139) can0 115#0DFB01340128
(1522126616.296359) can0 116#FF40FFB8
(1522126616.306203) can0 115#0DFB0134012A
(1522126616.306414) can0 116#FF3FFFB8
(1522126616.316269) can0 115#0DFC01340128
(1522126616.316492) can0 116#FF3DFFB8
(1522126616.326338) can0 115#0DFC0134012A
(1522126616.326547) can0 116#FF3BFFB8
(1522126616.336401) can0 115#0DFC01340128
(1522126616.336616) can0 116#FF3BFFB8
(1522126616.346460) can0 115#0DF701340128
(1522126616.346673) can0 116#FF39FFB8
(1522126616.356522) can0 115#0DF90134012A
(1522126616.356749) can0 116#FF39FFB8
(1522126616.366593) can0 115#0DFA01340128
(1522126616.366808) can0 116#FF39FFB8
(1522126616.367137) can0 117#0004000000000001
(1522126616.367276) can0 118#0000
(1522126616.367571) can0 119#0C2CFEA95C
(1522126616.368307) can0 122#FAFA00
(1522126616.368884) can0 124#0682838485868700
(1522126616.371821) can0 125#111618
(1522126616.376653) can0 115#0DF501340128
(1522126616.376878) can0 116#FF39FFB8
(1522126616.386717) can0 115#0DF201330128
(1522126616.386932) can0 116#FF39FFB8
(1522126616.396780) can0 115#0DEF01330128
(1522126616.397002) can0 116#FF38FFB4
(1522126616.406844) can0 115#0DED01330128
(1522126616.407063) can0 116#FF39FFB4
(1522126616.416912) can0 115#0DEC01330128
(1522126616.417134) can0 116#FF38FFB4
(1522126616.426983) can0 115#0DEB01330128
(1522126616.427191) can0 116#FF39FFB4
(1522126616.437041) can0 115#0DEA01330128
(1522126616.437265) can0 116#FF3AFFB4
(1522126616.447109) can0 115#0DE401320125
(1522126616.447324) can0 116#FF3DFFB4
(1522126616.457174) can0 115#0DE001320128
(1522126616.457395) can0 116#FF3AFFB4
(1522126616.467235) can0 115#0DDC01310125
(1522126616.467450) can0 116#FF3BFFB4
(1522126616.467783) can0 117#0004000000000001
(1522126616.467925) can0 118#0000
